time	V(vgate)	V(vout)	I(D3)
0.000000000000000e+000	3.300000e+000	7.492814e-003	3.465263e-001
6.249999897583222e-013	3.300000e+000	7.492814e-003	3.465263e-001
1.249999979516644e-012	3.300000e+000	7.492814e-003	3.465263e-001
1.874999969274967e-012	3.300000e+000	7.492814e-003	3.465263e-001
2.499999959033289e-012	3.300000e+000	7.492814e-003	3.465263e-001
3.124999948791611e-012	3.300000e+000	7.492814e-003	3.465263e-001
3.749999938549933e-012	3.300000e+000	7.492814e-003	3.465263e-001
4.374999928308254e-012	3.300000e+000	7.492814e-003	3.465263e-001
8.749999856616508e-012	3.300000e+000	7.492814e-003	3.465263e-001
1.391794175647776e-011	3.299999e+000	7.492813e-003	3.465263e-001
1.918361363973705e-011	3.299999e+000	7.492812e-003	3.465263e-001
2.453637515231722e-011	3.299997e+000	7.492810e-003	3.465263e-001
3.111815185863677e-011	3.299994e+000	7.492803e-003	3.465263e-001
3.991051223641694e-011	3.299989e+000	7.492788e-003	3.465264e-001
5.174155727546654e-011	3.299978e+000	7.492749e-003	3.465264e-001
6.809280218744917e-011	3.299954e+000	7.492651e-003	3.465264e-001
9.149001627140696e-011	3.299901e+000	7.492391e-003	3.465264e-001
1.276552726388162e-010	3.299770e+000	7.491639e-003	3.465264e-001
1.940210525461268e-010	3.299367e+000	7.489068e-003	3.465265e-001
3.267526123607479e-010	3.298161e+000	7.480921e-003	3.465266e-001
4.463984858275596e-010	3.296654e+000	7.470582e-003	3.465267e-001
6.253650076855567e-010	3.293759e+000	7.450996e-003	3.465268e-001
8.213954281340682e-010	3.290009e+000	7.426457e-003	3.465269e-001
1.000000000000000e-009	3.286222e+000	7.402430e-003	3.465270e-001
1.017860457186593e-009	3.285814e+000	7.399936e-003	3.465270e-001
1.053581371559780e-009	3.285018e+000	7.395082e-003	3.465270e-001
1.125023200306153e-009	3.283544e+000	7.386370e-003	3.465270e-001
1.267906857798898e-009	3.281003e+000	7.372790e-003	3.465270e-001
1.467048905804999e-009	3.278120e+000	7.360455e-003	3.465271e-001
1.687259523296786e-009	3.275573e+000	7.353353e-003	3.465271e-001
1.912003196332513e-009	3.273434e+000	7.350809e-003	3.465272e-001
2.166610473730586e-009	3.271330e+000	7.351201e-003	3.465272e-001
2.463467300350148e-009	3.269095e+000	7.353882e-003	3.465272e-001
2.831014709350043e-009	3.266480e+000	7.358761e-003	3.465272e-001
3.290637916278557e-009	3.263308e+000	7.365850e-003	3.465272e-001
3.910643858601733e-009	3.259089e+000	7.375997e-003	3.465272e-001
4.798113664980739e-009	3.253085e+000	7.390825e-003	3.465272e-001
6.261232932307769e-009	3.243226e+000	7.415500e-003	3.465272e-001
9.172426970290652e-009	3.223722e+000	7.465147e-003	3.465271e-001
1.499481504625642e-008	3.185056e+000	7.566131e-003	3.465270e-001
2.183075254625642e-008	3.140184e+000	7.687370e-003	3.465266e-001
2.866669004625642e-008	3.095920e+000	7.811851e-003	3.465256e-001
3.550262754625642e-008	3.052280e+000	7.939825e-003	3.465240e-001
4.917450254625642e-008	2.966835e+000	8.206806e-003	3.465185e-001
6.284637754625642e-008	2.883779e+000	8.489505e-003	3.465102e-001
7.651825254625640e-008	2.803044e+000	8.789248e-003	3.464991e-001
9.702606504625639e-008	2.686149e+000	9.274099e-003	3.464777e-001
1.175338775462564e-007	2.574114e+000	9.806421e-003	3.464505e-001
1.380416900462564e-007	2.466733e+000	1.039307e-002	3.464178e-001
1.585495025462564e-007	2.363810e+000	1.104230e-002	3.463796e-001
1.790573150462564e-007	2.265158e+000	1.176410e-002	3.463356e-001
1.995651275462565e-007	2.170599e+000	1.257074e-002	3.462854e-001
2.200729400462565e-007	2.079966e+000	1.347736e-002	3.462285e-001
2.337448150462565e-007	2.021647e+000	1.414651e-002	3.461865e-001
2.474166900462565e-007	1.964958e+000	1.487526e-002	3.461409e-001
2.610885650462565e-007	1.909857e+000	1.567165e-002	3.460914e-001
2.747604400462565e-007	1.856306e+000	1.654521e-002	3.460375e-001
2.884323150462566e-007	1.804268e+000	1.750735e-002	3.459788e-001
3.021041900462566e-007	1.753709e+000	1.857176e-002	3.459147e-001
3.157760650462566e-007	1.704599e+000	1.975510e-002	3.458446e-001
3.294479400462566e-007	1.656912e+000	2.107767e-002	3.457676e-001
3.362838775462566e-007	1.633595e+000	2.179878e-002	3.457261e-001
3.431198150462566e-007	1.610626e+000	2.256454e-002	3.456826e-001
3.499557525462566e-007	1.588004e+000	2.337904e-002	3.456368e-001
3.567916900462566e-007	1.565726e+000	2.424688e-002	3.455887e-001
3.636276275462566e-007	1.543793e+000	2.517320e-002	3.455378e-001
3.704635650462566e-007	1.522203e+000	2.616379e-002	3.454841e-001
3.772995025462567e-007	1.500958e+000	2.722521e-002	3.454273e-001
3.841354400462567e-007	1.480058e+000	2.836483e-002	3.453673e-001
3.909713775462567e-007	1.459504e+000	2.959104e-002	3.453035e-001
3.978073150462567e-007	1.439301e+000	3.091335e-002	3.452358e-001
4.046432525462567e-007	1.419451e+000	3.234259e-002	3.451637e-001
4.114791900462567e-007	1.399960e+000	3.389116e-002	3.450869e-001
4.183151275462567e-007	1.380833e+000	3.557322e-002	3.450049e-001
4.251510650462567e-007	1.362080e+000	3.740507e-002	3.449171e-001
4.319870025462567e-007	1.343709e+000	3.940548e-002	3.448230e-001
4.388229400462567e-007	1.325734e+000	4.159614e-002	3.447219e-001
4.456588775462567e-007	1.308169e+000	4.400224e-002	3.446130e-001
4.524948150462567e-007	1.291032e+000	4.665316e-002	3.444953e-001
4.593307525462567e-007	1.274345e+000	4.958330e-002	3.443679e-001
4.661666900462567e-007	1.258135e+000	5.283326e-002	3.442297e-001
4.730026275462568e-007	1.242435e+000	5.645120e-002	3.440792e-001
4.798385650462568e-007	1.227283e+000	6.049481e-002	3.439149e-001
4.866745025462567e-007	1.212730e+000	6.503381e-002	3.437350e-001
4.935104400462567e-007	1.198835e+000	7.015345e-002	3.435372e-001
5.003463775462566e-007	1.185677e+000	7.595932e-002	3.433191e-001
5.071823150462566e-007	1.173352e+000	8.258407e-002	3.430776e-001
5.140182525462565e-007	1.161986e+000	9.019689e-002	3.428089e-001
5.208541900462565e-007	1.151744e+000	9.901695e-002	3.425087e-001
5.276901275462564e-007	1.142846e+000	1.093321e-001	3.421713e-001
5.345260650462564e-007	1.135581e+000	1.215238e-001	3.417898e-001
5.413620025462564e-007	1.130341e+000	1.360982e-001	3.413552e-001
5.481979400462563e-007	1.127441e+000	1.534840e-001	3.408565e-001
5.550338775462563e-007	1.126441e+000	1.731966e-001	3.402812e-001
5.618698150462562e-007	1.126167e+000	1.938493e-001	3.396191e-001
5.687057525462562e-007	1.125912e+000	2.146023e-001	3.388651e-001
5.755416900462561e-007	1.125629e+000	2.353991e-001	3.380199e-001
5.823776275462561e-007	1.125322e+000	2.562490e-001	3.370870e-001
5.892135650462560e-007	1.124989e+000	2.771536e-001	3.360711e-001
5.960495025462560e-007	1.124634e+000	2.981206e-001	3.349772e-001
6.097213775462559e-007	1.123860e+000	3.402574e-001	3.325736e-001
6.233932525462558e-007	1.123007e+000	3.827012e-001	3.299108e-001
6.370651275462557e-007	1.122082e+000	4.254959e-001	3.270187e-001
6.575729400462556e-007	1.120572e+000	4.904476e-001	3.223053e-001
6.780807525462554e-007	1.118927e+000	5.564630e-001	3.172024e-001
6.946823150462553e-007	1.117505e+000	6.104393e-001	3.127983e-001
7.112838775462552e-007	1.116004e+000	6.657053e-001	3.082254e-001
7.278854400462552e-007	1.114426e+000	7.222610e-001	3.034838e-001
7.444870025462550e-007	1.112770e+000	7.801063e-001	2.985735e-001
7.610885650462549e-007	1.111035e+000	8.392412e-001	2.934944e-001
7.776901275462548e-007	1.109223e+000	8.996658e-001	2.882466e-001
7.942916900462547e-007	1.107332e+000	9.613801e-001	2.828300e-001
8.128463775462546e-007	1.105154e+000	1.031967e+000	2.766562e-001
8.314010650462544e-007	1.102813e+000	1.106439e+000	2.702340e-001
8.499557525462543e-007	1.100309e+000	1.184794e+000	2.635633e-001
8.685104400462541e-007	1.097643e+000	1.267035e+000	2.566443e-001
8.870651275462541e-007	1.094814e+000	1.353159e+000	2.494768e-001
9.056198150462540e-007	1.091823e+000	1.443168e+000	2.420610e-001
9.241745025462538e-007	1.088670e+000	1.537061e+000	2.343967e-001
9.397995025462539e-007	1.085859e+000	1.620856e+000	2.276886e-001
9.554245025462540e-007	1.082769e+000	1.709876e+000	2.206534e-001
9.710495025462540e-007	1.079402e+000	1.804123e+000	2.132912e-001
9.866745025462542e-007	1.075757e+000	1.903595e+000	2.056019e-001
1.002299502546254e-006	1.071833e+000	2.008294e+000	1.975855e-001
1.017924502546254e-006	1.067631e+000	2.118218e+000	1.892421e-001
1.033549502546254e-006	1.063151e+000	2.233368e+000	1.805716e-001
1.054057315046254e-006	1.056482e+000	2.394564e+000	1.684892e-001
1.074565127546255e-006	1.048911e+000	2.566229e+000	1.556647e-001
1.095072940046255e-006	1.040238e+000	2.748156e+000	1.420748e-001
1.108744815046255e-006	1.033711e+000	2.874860e+000	1.325876e-001
1.122416690046255e-006	1.026468e+000	3.005556e+000	1.227652e-001
1.136088565046255e-006	1.018370e+000	3.139808e+000	1.126214e-001
1.142924502546255e-006	1.013947e+000	3.208086e+000	1.074358e-001
1.149760440046255e-006	1.009237e+000	3.277009e+000	1.021792e-001
1.156596377546255e-006	1.004208e+000	3.346464e+000	9.685637e-002
1.163432315046255e-006	9.988206e-001	3.416321e+000	9.147284e-002
1.170268252546255e-006	9.930266e-001	3.486422e+000	8.603524e-002
1.177104190046256e-006	9.867690e-001	3.556581e+000	8.055135e-002
1.183940127546256e-006	9.799772e-001	3.626575e+000	7.503032e-002
1.190776065046256e-006	9.725638e-001	3.696130e+000	6.948289e-002
1.197612002546256e-006	9.644187e-001	3.764912e+000	6.392165e-002
1.204447940046256e-006	9.554015e-001	3.832506e+000	5.836134e-002
1.211283877546256e-006	9.453311e-001	3.898388e+000	5.281936e-002
1.218119815046256e-006	9.339706e-001	3.961887e+000	4.731614e-002
1.224955752546256e-006	9.210087e-001	4.022141e+000	4.187591e-002
1.231791690046256e-006	9.060353e-001	4.078029e+000	3.652743e-002
1.238627627546256e-006	8.885173e-001	4.128110e+000	3.130497e-002
1.245463565046256e-006	8.677849e-001	4.170576e+000	2.624940e-002
1.252299502546256e-006	8.430554e-001	4.203283e+000	2.140916e-002
1.259135440046256e-006	8.135283e-001	4.223947e+000	1.684078e-002
1.265971377546256e-006	7.785757e-001	4.230554e+000	1.260817e-002
1.272807315046256e-006	7.379909e-001	4.221933e+000	8.779885e-003
1.279643252546256e-006	6.921868e-001	4.198245e+000	5.423876e-003
1.286479190046257e-006	6.422350e-001	4.161143e+000	2.600369e-003
1.293315127546257e-006	5.897270e-001	4.113555e+000	3.543297e-004
1.300151065046257e-006	5.365421e-001	4.059222e+000	-1.290632e-003
1.306987002546257e-006	4.846210e-001	4.002228e+000	-2.335638e-003
1.313822940046257e-006	4.357930e-001	3.946621e+000	-2.806972e-003
1.320658877546257e-006	3.916569e-001	3.896135e+000	-2.754060e-003
1.327494815046257e-006	3.534975e-001	3.853987e+000	-2.245782e-003
1.334330752546257e-006	3.222308e-001	3.822734e+000	-1.365869e-003
1.341166690046257e-006	2.981315e-001	3.803723e+000	-2.122580e-004
1.347129874484704e-006	2.833771e-001	3.798511e+000	9.492294e-004
1.353585400425313e-006	2.739573e-001	3.805372e+000	2.288587e-003
1.360421337925313e-006	2.703287e-001	3.825351e+000	3.704568e-003
1.367257275425313e-006	2.723684e-001	3.857261e+000	5.036819e-003
1.374093212925313e-006	2.789969e-001	3.899426e+000	6.210020e-003
1.380929150425313e-006	2.888625e-001	3.949483e+000	7.162156e-003
1.387765087925313e-006	3.005259e-001	4.004719e+000	7.847075e-003
1.394601025425313e-006	3.125481e-001	4.062242e+000	8.235579e-003
1.401436962925314e-006	3.235725e-001	4.119150e+000	8.315722e-003
1.408272900425314e-006	3.323973e-001	4.172699e+000	8.092416e-003
1.415108837925314e-006	3.380343e-001	4.220447e+000	7.586458e-003
1.421944775425314e-006	3.397515e-001	4.260380e+000	6.833037e-003
1.428780712925314e-006	3.370981e-001	4.291013e+000	5.879739e-003
1.435616650425314e-006	3.299123e-001	4.311441e+000	4.783981e-003
1.442452587925314e-006	3.183126e-001	4.321373e+000	3.609818e-003
1.449288525425314e-006	3.026973e-001	4.321175e+000	2.423578e-003
1.455928314902965e-006	2.842045e-001	4.311960e+000	1.323055e-003
1.462764252402965e-006	2.625039e-001	4.294493e+000	3.027810e-004
1.469600189902965e-006	2.390352e-001	4.270737e+000	-5.537419e-004
1.476436127402965e-006	2.147470e-001	4.242599e+000	-1.206502e-003
1.483272064902965e-006	1.906264e-001	4.212193e+000	-1.630150e-003
1.490108002402965e-006	1.676222e-001	4.181660e+000	-1.814245e-003
1.496943939902965e-006	1.465949e-001	4.153037e+000	-1.763014e-003
1.503779877402965e-006	1.282723e-001	4.128160e+000	-1.494170e-003
1.510615814902965e-006	1.132145e-001	4.108564e+000	-1.036965e-003
1.517451752402965e-006	1.017889e-001	4.095419e+000	-4.297366e-004
1.524287689902965e-006	9.415662e-002	4.089475e+000	2.828798e-004
1.531123627402965e-006	9.027097e-002	4.091041e+000	1.052847e-003
1.537959564902965e-006	8.988766e-002	4.099989e+000	1.831585e-003
1.544795502402965e-006	9.258632e-002	4.115778e+000	2.572657e-003
1.551631439902965e-006	9.780115e-002	4.137499e+000	3.234152e-003
1.558467377402966e-006	1.048591e-001	4.163947e+000	3.780691e-003
1.565303314902966e-006	1.130227e-001	4.193693e+000	4.184977e-003
1.572139252402966e-006	1.215347e-001	4.225178e+000	4.428850e-003
1.578975189902966e-006	1.296618e-001	4.256807e+000	4.503821e-003
1.585811127402966e-006	1.367350e-001	4.287034e+000	4.411095e-003
1.592647064902966e-006	1.421841e-001	4.314456e+000	4.161107e-003
1.599483002402966e-006	1.455653e-001	4.337878e+000	3.772621e-003
1.606318939902966e-006	1.465793e-001	4.356379e+000	3.271421e-003
1.613154877402966e-006	1.450811e-001	4.369349e+000	2.688698e-003
1.619990814902966e-006	1.410805e-001	4.376514e+000	2.059159e-003
1.626826752402966e-006	1.347345e-001	4.377934e+000	1.418988e-003
1.633662689902966e-006	1.263307e-001	4.373988e+000	8.037328e-004
1.640498627402966e-006	1.162663e-001	4.365340e+000	2.462700e-004
1.647334564902966e-006	1.050203e-001	4.352887e+000	-2.250466e-004
1.654170502402966e-006	9.312416e-002	4.337702e+000	-5.879068e-004
1.661006439902966e-006	8.112926e-002	4.320963e+000	-8.271444e-004
1.667842377402966e-006	6.957591e-002	4.303884e+000	-9.353490e-004
1.674678314902967e-006	5.896341e-002	4.287646e+000	-9.129688e-004
1.681514252402967e-006	4.972365e-002	4.273331e+000	-7.679247e-004
1.688350189902967e-006	4.219936e-002	4.261868e+000	-5.147947e-004
1.695186127402967e-006	3.662807e-002	4.253981e+000	-1.736484e-004
1.702022064902967e-006	3.313247e-002	4.250167e+000	2.313703e-004
1.708858002402967e-006	3.167725e-002	4.250577e+000	6.736749e-004
1.715113617543210e-006	3.211832e-002	4.254816e+000	1.087864e-003
1.721949555043210e-006	3.433819e-002	4.263432e+000	1.525002e-003
1.728785492543210e-006	3.800663e-002	4.275578e+000	1.922332e-003
1.735621430043210e-006	4.280232e-002	4.290699e+000	2.258192e-003
1.742457367543210e-006	4.831792e-002	4.308003e+000	2.515352e-003
1.749293305043210e-006	5.412530e-002	4.326607e+000	2.681704e-003
1.756129242543210e-006	5.980059e-002	4.345585e+000	2.750719e-003
1.762965180043210e-006	6.494799e-002	4.364024e+000	2.721575e-003
1.769801117543210e-006	6.922088e-002	4.381075e+000	2.598985e-003
1.776637055043210e-006	7.233920e-002	4.396000e+000	2.392726e-003
1.783472992543210e-006	7.410231e-002	4.408206e+000	2.116913e-003
1.790308930043210e-006	7.439679e-002	4.417274e+000	1.789065e-003
1.797144867543210e-006	7.319900e-002	4.422981e+000	1.429008e-003
1.803980805043211e-006	7.061668e-002	4.425410e+000	1.057006e-003
1.809820921370715e-006	6.738153e-002	4.424919e+000	7.448168e-004
1.815418528294873e-006	6.344267e-002	4.422215e+000	4.653707e-004
1.822254465794873e-006	5.783573e-002	4.416594e+000	1.637956e-004
1.829090403294873e-006	5.166964e-002	4.409085e+000	-8.331116e-005
1.835926340794873e-006	4.521579e-002	4.400220e+000	-2.631161e-004
1.842762278294873e-006	3.879727e-002	4.390704e+000	-3.686117e-004
1.849598215794873e-006	3.272461e-002	4.381249e+000	-3.972978e-004
1.856434153294873e-006	2.727871e-002	4.372538e+000	-3.511448e-004
1.863270090794873e-006	2.269617e-002	4.365178e+000	-2.362967e-004
1.870106028294874e-006	1.915759e-002	4.359681e+000	-6.254394e-005
1.876941965794874e-006	1.677935e-002	4.356430e+000	1.573892e-004
1.883777903294874e-006	1.559783e-002	4.355639e+000	4.086173e-004
1.890341893166689e-006	1.559360e-002	4.357329e+000	6.647204e-004
1.897177830666689e-006	1.668338e-002	4.361584e+000	9.310476e-004
1.904013768166689e-006	1.872643e-002	4.368139e+000	1.181632e-003
1.910849705666689e-006	2.154498e-002	4.376699e+000	1.402541e-003
1.917685643166689e-006	2.491426e-002	4.386841e+000	1.582000e-003
1.924521580666689e-006	2.858822e-002	4.398068e+000	1.711032e-003
1.931357518166689e-006	3.231424e-002	4.409839e+000	1.783849e-003
1.938193455666690e-006	3.584769e-002	4.421602e+000	1.798050e-003
1.945029393166690e-006	3.896545e-002	4.432824e+000	1.754626e-003
1.951865330666690e-006	4.147757e-002	4.443024e+000	1.657778e-003
1.958701268166690e-006	4.323673e-002	4.451792e+000	1.514568e-003
1.965537205666690e-006	4.414474e-002	4.458817e+000	1.334411e-003
1.972373143166690e-006	4.415610e-002	4.463894e+000	1.128474e-003
1.979209080666690e-006	4.327846e-002	4.466937e+000	9.089729e-004
1.986045018166690e-006	4.157001e-002	4.467975e+000	6.884539e-004
1.992880955666690e-006	3.913914e-002	4.467164e+000	4.788051e-004
1.999455018849713e-006	3.624079e-002	4.464833e+000	2.982149e-004
2.006290956349713e-006	3.280998e-002	4.461111e+000	1.415662e-004
2.013126893849713e-006	2.914741e-002	4.456468e+000	2.331073e-005
2.019962831349713e-006	2.544187e-002	4.451307e+000	-5.140051e-005
2.026798768849713e-006	2.188283e-002	4.446058e+000	-8.033129e-005
2.033634706349713e-006	1.864503e-002	4.441138e+000	-6.392557e-005
2.040470643849713e-006	1.587915e-002	4.436930e+000	-5.178281e-006
2.047306581349713e-006	1.370422e-002	4.433761e+000	9.063501e-005
2.054142518849713e-006	1.220201e-002	4.431885e+000	2.163478e-004
2.060978456349713e-006	1.140299e-002	4.431451e+000	3.632720e-004
2.067395811618950e-006	1.131374e-002	4.432474e+000	5.123860e-004
2.074231749118950e-006	1.188493e-002	4.435080e+000	6.736874e-004
2.081067686618950e-006	1.304856e-002	4.439110e+000	8.280814e-004
2.087903624118950e-006	1.471042e-002	4.444418e+000	9.669145e-004
2.094739561618950e-006	1.674168e-002	4.450766e+000	1.082637e-003
2.101575499118950e-006	1.899787e-002	4.457866e+000	1.169294e-003
2.108411436618950e-006	2.132768e-002	4.465396e+000	1.222793e-003
2.115247374118950e-006	2.358172e-002	4.473022e+000	1.241070e-003
2.122083311618950e-006	2.562093e-002	4.480418e+000	1.224126e-003
2.128919249118950e-006	2.732403e-002	4.487279e+000	1.173952e-003
2.135755186618950e-006	2.859370e-002	4.493342e+000	1.094342e-003
2.142591124118950e-006	2.936109e-002	4.498398e+000	9.906203e-004
2.149427061618950e-006	2.958866e-002	4.502303e+000	8.692795e-004
2.156262999118950e-006	2.927105e-002	4.504981e+000	7.375763e-004
2.163098936618950e-006	2.843417e-002	4.506428e+000	6.030929e-004
2.169934874118950e-006	2.713253e-002	4.506709e+000	4.732954e-004
2.176770811618950e-006	2.544510e-002	4.505952e+000	3.551153e-004
2.183606749118951e-006	2.346991e-002	4.504339e+000	2.545748e-004
2.190442686618951e-006	2.131787e-002	4.502090e+000	1.764776e-004
2.197278624118951e-006	1.910598e-002	4.499456e+000	1.241810e-004
2.204114561618951e-006	1.695057e-002	4.496697e+000	9.945764e-005
2.210950499118951e-006	1.496070e-002	4.494070e+000	1.024541e-004
2.217786436618951e-006	1.323234e-002	4.491817e+000	1.317437e-004
2.224622374118951e-006	1.184338e-002	4.490144e+000	1.844665e-004
2.231458311618951e-006	1.083027e-002	4.489182e+000	2.560002e-004
2.237067789510228e-006	1.032111e-002	4.489043e+000	3.260411e-004
2.242944130072501e-006	1.013296e-002	4.489634e+000	4.070715e-004
2.249780067572501e-006	1.030364e-002	4.491195e+000	5.049889e-004
2.256616005072501e-006	1.084985e-002	4.493641e+000	6.014229e-004
2.263451942572501e-006	1.173258e-002	4.496925e+000	6.910152e-004
2.270287880072501e-006	1.288064e-002	4.500923e+000	7.687508e-004
2.277123817572501e-006	1.421066e-002	4.505474e+000	8.304730e-004
2.283959755072501e-006	1.563221e-002	4.510390e+000	8.730848e-004
2.290795692572501e-006	1.705320e-002	4.515471e+000	8.946842e-004
2.297631630072501e-006	1.838513e-002	4.520512e+000	8.946281e-004
2.304467567572501e-006	1.954801e-002	4.525319e+000	8.735217e-004
2.311303505072501e-006	2.047449e-002	4.529716e+000	8.331396e-004
2.318139442572501e-006	2.111323e-002	4.533559e+000	7.762835e-004
