time	V(vgate)	V(vout)	I(D3)
0.000000000000000e+000	3.300000e+000	7.492814e-003	3.465263e-001
6.249999897583222e-013	3.300000e+000	7.492814e-003	3.465263e-001
1.249999979516644e-012	3.300000e+000	7.492814e-003	3.465263e-001
1.874999969274967e-012	3.300000e+000	7.492814e-003	3.465263e-001
2.499999959033289e-012	3.300000e+000	7.492814e-003	3.465263e-001
3.124999948791611e-012	3.300000e+000	7.492814e-003	3.465263e-001
3.749999938549933e-012	3.300000e+000	7.492814e-003	3.465263e-001
4.374999928308254e-012	3.300000e+000	7.492814e-003	3.465263e-001
8.749999856616508e-012	3.300000e+000	7.492814e-003	3.465263e-001
1.360089847921132e-011	3.299999e+000	7.492813e-003	3.465263e-001
1.857552683198755e-011	3.299999e+000	7.492812e-003	3.465263e-001
2.334920986851804e-011	3.299997e+000	7.492810e-003	3.465263e-001
2.915267722666051e-011	3.299995e+000	7.492804e-003	3.465263e-001
3.633240561350562e-011	3.299990e+000	7.492792e-003	3.465264e-001
4.548320467969268e-011	3.299980e+000	7.492763e-003	3.465264e-001
5.687866695592900e-011	3.299962e+000	7.492700e-003	3.465264e-001
7.132737251049993e-011	3.299926e+000	7.492558e-003	3.465264e-001
8.947149134336207e-011	3.299856e+000	7.492247e-003	3.465264e-001
1.125840484077163e-010	3.299719e+000	7.491568e-003	3.465264e-001
1.419839264903324e-010	3.299448e+000	7.490105e-003	3.465264e-001
1.799414881943945e-010	3.298906e+000	7.486952e-003	3.465265e-001
2.294088517487025e-010	3.297807e+000	7.480177e-003	3.465265e-001
2.955877715691281e-010	3.295515e+000	7.465388e-003	3.465266e-001
3.876706522884971e-010	3.290512e+000	7.432035e-003	3.465267e-001
5.290130307532748e-010	3.278842e+000	7.353060e-003	3.465267e-001
7.173152430704448e-010	3.258265e+000	7.213418e-003	3.465268e-001
7.699810063518946e-010	3.251237e+000	7.166052e-003	3.465269e-001
8.753125329147942e-010	3.235182e+000	7.059262e-003	3.465269e-001
1.000000000000000e-009	3.215129e+000	6.927500e-003	3.465270e-001
1.012468746708521e-009	3.213010e+000	6.913864e-003	3.465270e-001
1.037406240125562e-009	3.208771e+000	6.886683e-003	3.465270e-001
1.087281226959644e-009	3.200407e+000	6.833646e-003	3.465270e-001
1.187031200627809e-009	3.184942e+000	6.739324e-003	3.465270e-001
1.386531147964138e-009	3.159623e+000	6.600555e-003	3.465271e-001
1.594882309899002e-009	3.142489e+000	6.536542e-003	3.465272e-001
1.841326522421892e-009	3.134134e+000	6.562955e-003	3.465272e-001
2.105236863079855e-009	3.133262e+000	6.659069e-003	3.465273e-001
2.376967591035408e-009	3.133925e+000	6.769218e-003	3.465273e-001
2.625893005449466e-009	3.130832e+000	6.836409e-003	3.465274e-001
2.942026461749078e-009	3.120463e+000	6.865026e-003	3.465274e-001
3.302962899407213e-009	3.104416e+000	6.861622e-003	3.465275e-001
3.673008540067407e-009	3.088307e+000	6.862227e-003	3.465276e-001
4.050353192782796e-009	3.074999e+000	6.890760e-003	3.465276e-001
4.602301342153156e-009	3.058456e+000	6.957629e-003	3.465278e-001
5.165790538544798e-009	3.040848e+000	7.018321e-003	3.465279e-001
5.750526428496460e-009	3.021084e+000	7.067317e-003	3.465280e-001
6.488486159959527e-009	2.996342e+000	7.130811e-003	3.465281e-001
7.268390611937899e-009	2.971259e+000	7.206946e-003	3.465284e-001
8.396378944964386e-009	2.935221e+000	7.317750e-003	3.465286e-001
9.556305080001156e-009	2.898405e+000	7.432347e-003	3.465288e-001
1.187615735007469e-008	2.826438e+000	7.673507e-003	3.465292e-001
1.434154933941821e-008	2.751796e+000	7.943096e-003	3.465293e-001
1.755590418045370e-008	2.657781e+000	8.322008e-003	3.465287e-001
2.251774958861065e-008	2.519352e+000	8.974012e-003	3.465259e-001
2.935368708861065e-008	2.339463e+000	1.000809e-002	3.465181e-001
3.618962458861065e-008	2.171512e+000	1.123934e-002	3.465049e-001
4.302556208861066e-008	2.015544e+000	1.274433e-002	3.464848e-001
4.986149958861066e-008	1.870736e+000	1.462110e-002	3.464564e-001
5.669743708861066e-008	1.736353e+000	1.702086e-002	3.464181e-001
6.353337458861066e-008	1.611802e+000	2.018778e-002	3.463672e-001
7.036931208861065e-008	1.496657e+000	2.453907e-002	3.462999e-001
7.720524958861065e-008	1.390805e+000	3.083200e-002	3.462100e-001
8.404118708861064e-008	1.294686e+000	4.054047e-002	3.460872e-001
9.087712458861063e-008	1.210012e+000	5.681302e-002	3.459128e-001
9.771306208861063e-008	1.139988e+000	8.524152e-002	3.456616e-001
1.028329824682943e-007	1.104575e+000	1.247143e-001	3.453834e-001
1.076321684380925e-007	1.090489e+000	1.844037e-001	3.449905e-001
1.124113679288450e-007	1.087808e+000	2.584327e-001	3.443997e-001
1.178500221087837e-007	1.087314e+000	3.473139e-001	3.434143e-001
1.237679107915547e-007	1.086539e+000	4.459955e-001	3.419113e-001
1.306038482915547e-007	1.085451e+000	5.632012e-001	3.396039e-001
1.374397857915547e-007	1.084091e+000	6.846253e-001	3.366852e-001
1.442757232915547e-007	1.082457e+000	8.116456e-001	3.331358e-001
1.511116607915548e-007	1.080497e+000	9.458708e-001	3.289578e-001
1.579475982915548e-007	1.078178e+000	1.089438e+000	3.241469e-001
1.647835357915548e-007	1.075424e+000	1.245082e+000	3.186878e-001
1.716194732915548e-007	1.072158e+000	1.416270e+000	3.125501e-001
1.784554107915548e-007	1.068270e+000	1.607148e+000	3.056847e-001
1.852913482915548e-007	1.063648e+000	1.822397e+000	2.980210e-001
1.921272857915548e-007	1.058155e+000	2.066848e+000	2.894641e-001
1.989632232915548e-007	1.051648e+000	2.345001e+000	2.798952e-001
2.057991607915548e-007	1.043949e+000	2.660460e+000	2.691740e-001
2.126350982915548e-007	1.034836e+000	3.015426e+000	2.571449e-001
2.194710357915548e-007	1.023999e+000	3.410276e+000	2.436461e-001
2.263069732915548e-007	1.010980e+000	3.843206e+000	2.285219e-001
2.331429107915548e-007	9.950594e-001	4.309831e+000	2.116374e-001
2.399788482915548e-007	9.750455e-001	4.802495e+000	1.928954e-001
2.468147857915549e-007	9.488504e-001	5.308809e+000	1.722587e-001
2.536507232915549e-007	9.127231e-001	5.808747e+000	1.497797e-001
2.604866607915549e-007	8.604968e-001	6.270905e+000	1.256450e-001
2.673225982915549e-007	7.846297e-001	6.653326e+000	1.002316e-001
2.741585357915549e-007	6.804237e-001	6.915160e+000	7.415617e-002
2.809944732915549e-007	5.499684e-001	7.032180e+000	4.827255e-002
2.878304107915549e-007	4.011833e-001	7.001538e+000	2.359300e-002
2.946071510269375e-007	2.450206e-001	6.835961e+000	1.365227e-003
3.014430885269375e-007	8.676734e-002	6.556575e+000	-1.810408e-002
3.066365451166373e-007	-2.924697e-002	6.277327e+000	-3.025160e-002
3.124594549544199e-007	-1.501614e-001	5.908112e+000	-4.058803e-002
3.192953924544199e-007	-2.768618e-001	5.433773e+000	-4.878028e-002
3.261313299544199e-007	-3.835604e-001	4.941662e+000	-5.294400e-002
3.329672674544199e-007	-4.660774e-001	4.458325e+000	-5.328662e-002
3.398032049544199e-007	-5.214575e-001	4.010578e+000	-5.029435e-002
3.466391424544199e-007	-5.475070e-001	3.621821e+000	-4.451279e-002
3.534750799544200e-007	-5.429602e-001	3.310894e+000	-3.652724e-002
3.603110174544200e-007	-5.077595e-001	3.091278e+000	-2.694881e-002
3.671469549544200e-007	-4.434151e-001	2.970722e+000	-1.639383e-002
3.739828924544200e-007	-3.533318e-001	2.951253e+000	-5.460689e-003
3.808188299544200e-007	-2.429577e-001	3.029511e+000	5.288688e-003
3.876547674544200e-007	-1.196022e-001	3.197293e+000	1.533991e-002
3.944907049544200e-007	8.154529e-003	3.442131e+000	2.423541e-002
4.012811641326100e-007	1.306451e-001	3.745971e+000	3.154167e-002
4.079235897163575e-007	2.381135e-001	4.084796e+000	3.687634e-002
4.147595272163575e-007	3.292854e-001	4.456511e+000	4.026609e-002
4.215954647163575e-007	3.963126e-001	4.830655e+000	4.142343e-002
4.284314022163575e-007	4.366012e-001	5.187021e+000	4.032857e-002
4.352673397163575e-007	4.498055e-001	5.506648e+000	3.710914e-002
4.421032772163575e-007	4.373480e-001	5.773124e+000	3.201633e-002
4.489392147163575e-007	4.019844e-001	5.973496e+000	2.539520e-002
4.557751522163575e-007	3.473907e-001	6.098963e+000	1.764569e-002
4.626110897163575e-007	2.778140e-001	6.145291e+000	9.196018e-003
4.694470272163576e-007	1.978163e-001	6.113440e+000	4.972778e-004
4.760878258983203e-007	1.144179e-001	6.011285e+000	-7.725547e-003
4.829237633983203e-007	2.714446e-002	5.841618e+000	-1.545978e-002
4.897597008983203e-007	-5.734406e-002	5.619597e+000	-2.199627e-002
4.965956383983202e-007	-1.351930e-001	5.359416e+000	-2.695274e-002
5.034315758983202e-007	-2.029684e-001	5.077288e+000	-3.008614e-002
5.102675133983201e-007	-2.577534e-001	4.789954e+000	-3.130188e-002
5.171034508983201e-007	-2.972162e-001	4.513699e+000	-3.064182e-002
5.239393883983200e-007	-3.196848e-001	4.263443e+000	-2.826041e-002
5.307753258983200e-007	-3.242342e-001	4.051970e+000	-2.439836e-002
5.376112633983199e-007	-3.107838e-001	3.889316e+000	-1.935769e-002
5.444472008983199e-007	-2.801889e-001	3.782362e+000	-1.347869e-002
5.512831383983198e-007	-2.348336e-001	3.731805e+000	-7.118193e-003
5.568068899944128e-007	-1.885741e-001	3.735452e+000	-1.856699e-003
5.627927935513015e-007	-1.307907e-001	3.785643e+000	3.711990e-003
5.696287310513015e-007	-5.984354e-002	3.890947e+000	9.632478e-003
5.764646685513014e-007	1.222868e-002	4.039434e+000	1.484144e-002
5.831418801947599e-007	7.953721e-002	4.218944e+000	1.898780e-002
5.899778176947599e-007	1.411445e-001	4.426917e+000	2.208017e-002
5.968137551947599e-007	1.919945e-001	4.647011e+000	2.389266e-002
6.036496926947598e-007	2.295196e-001	4.866988e+000	2.435998e-002
6.104856301947598e-007	2.522407e-001	5.074826e+000	2.349654e-002
6.173215676947597e-007	2.597274e-001	5.259541e+000	2.138955e-002
6.241575051947597e-007	2.524998e-001	5.411771e+000	1.819290e-002
6.309934426947596e-007	2.318758e-001	5.524266e+000	1.411628e-002
6.378293801947596e-007	1.997939e-001	5.592236e+000	9.411322e-003
6.446653176947595e-007	1.586355e-001	5.613559e+000	4.357088e-003
6.515012551947595e-007	1.110578e-001	5.588814e+000	-7.541520e-004
6.583371926947594e-007	5.984560e-002	5.521158e+000	-5.631609e-003
6.651731301947594e-007	7.780717e-003	5.416044e+000	-1.000248e-002
6.720090676947593e-007	-4.246921e-002	5.280829e+000	-1.362989e-002
6.788450051947593e-007	-8.844636e-002	5.124267e+000	-1.632969e-002
6.856809426947593e-007	-1.279847e-001	4.955956e+000	-1.798264e-002
6.925168801947592e-007	-1.592813e-001	4.785758e+000	-1.853978e-002
6.993528176947592e-007	-1.809600e-001	4.623220e+000	-1.802101e-002
7.061887551947591e-007	-1.921275e-001	4.477064e+000	-1.650823e-002
7.130246926947591e-007	-1.924211e-001	4.354725e+000	-1.413503e-002
7.198606301947590e-007	-1.820432e-001	4.262005e+000	-1.107452e-002
7.266965676947590e-007	-1.617735e-001	4.202832e+000	-7.526600e-003
7.335325051947589e-007	-1.329505e-001	4.179133e+000	-3.705514e-003
7.403684426947589e-007	-9.748841e-002	4.190108e+000	1.773838e-004
7.465910227902124e-007	-6.114515e-002	4.229938e+000	3.581567e-003
7.534269602902124e-007	-1.906604e-002	4.302058e+000	7.016940e-003
7.591414958804432e-007	1.605566e-002	4.381380e+000	9.530497e-003
7.645532721418705e-007	4.760343e-002	4.470896e+000	1.146808e-002
7.713892096418704e-007	8.334085e-002	4.596213e+000	1.326262e-002
7.782251471418704e-007	1.131018e-001	4.727763e+000	1.431417e-002
7.850610846418703e-007	1.352489e-001	4.859003e+000	1.455677e-002
7.918970221418703e-007	1.488724e-001	4.982759e+000	1.400349e-002
7.987329596418702e-007	1.536280e-001	5.092513e+000	1.271039e-002
8.055688971418702e-007	1.497093e-001	5.182738e+000	1.077249e-002
8.124048346418701e-007	1.377875e-001	5.249181e+000	8.317733e-003
8.192407721418701e-007	1.189292e-001	5.289060e+000	5.499012e-003
8.260767096418701e-007	9.450381e-002	5.301170e+000	2.485195e-003
8.329126471418700e-007	6.608716e-002	5.285902e+000	-5.486174e-004
8.397485846418700e-007	3.536873e-002	5.245162e+000	-3.431108e-003
8.465845221418699e-007	4.063902e-003	5.182210e+000	-6.004673e-003
8.534204596418699e-007	-2.616553e-002	5.101421e+000	-8.134646e-003
8.602563971418698e-007	-5.378247e-002	5.007999e+000	-9.717034e-003
8.670923346418698e-007	-7.743692e-002	4.907647e+000	-1.068397e-002
8.739282721418697e-007	-9.601964e-002	4.806225e+000	-1.100638e-002
8.807642096418697e-007	-1.087069e-001	4.709416e+000	-1.069376e-002
8.876001471418696e-007	-1.149951e-001	4.622419e+000	-9.791350e-003
8.944360846418696e-007	-1.147244e-001	4.549675e+000	-8.375270e-003
9.012720221418696e-007	-1.080878e-001	4.494658e+000	-6.546256e-003
9.081079596418695e-007	-9.562354e-002	4.459724e+000	-4.422550e-003
9.149438971418695e-007	-7.818782e-002	4.446038e+000	-2.132527e-003
9.217798346418694e-007	-5.694010e-002	4.453210e+000	1.952399e-004
9.281311231939541e-007	-3.486679e-002	4.478182e+000	2.276641e-003
9.349670606939541e-007	-9.964881e-003	4.522233e+000	4.326162e-003
9.409942036724676e-007	1.182958e-002	4.573339e+000	5.891344e-003
9.468663127811623e-007	3.182717e-002	4.632478e+000	7.111727e-003
9.537022502811624e-007	5.251340e-002	4.708419e+000	8.121046e-003
9.605381877811625e-007	6.954464e-002	4.787576e+000	8.671408e-003
9.673741252811625e-007	8.203176e-002	4.865838e+000	8.734825e-003
9.742100627811626e-007	8.946815e-002	4.938954e+000	8.324599e-003
9.810460002811626e-007	9.166558e-002	5.003107e+000	7.479475e-003
9.878819377811627e-007	8.874389e-002	5.055110e+000	6.260876e-003
9.947178752811628e-007	8.110249e-002	5.092564e+000	4.748944e-003
1.001553812781163e-006	6.937831e-002	5.113959e+000	3.037610e-003
1.008389750281163e-006	5.439485e-002	5.118736e+000	1.228977e-003
1.015225687781163e-006	3.710655e-002	5.107276e+000	-5.726581e-004
1.022061625281163e-006	1.854190e-002	5.080853e+000	-2.266816e-003
1.028897562781163e-006	-2.521438e-004	5.041522e+000	-3.762536e-003
1.035733500281163e-006	-1.826237e-002	4.991981e+000	-4.983389e-003
1.042569437781163e-006	-3.455690e-002	4.935390e+000	-5.871485e-003
1.049405375281163e-006	-4.832707e-002	4.875178e+000	-6.390169e-003
1.056241312781163e-006	-5.892263e-002	4.814844e+000	-6.525285e-003
1.063077250281163e-006	-6.587955e-002	4.757751e+000	-6.284949e-003
1.069913187781163e-006	-6.893939e-002	4.706954e+000	-5.697992e-003
1.076749125281164e-006	-6.805921e-002	4.665036e+000	-4.811252e-003
1.083585062781164e-006	-6.341111e-002	4.633991e+000	-3.686027e-003
1.090421000281164e-006	-5.537043e-002	4.615132e+000	-2.393948e-003
1.097256937781164e-006	-4.449264e-002	4.609055e+000	-1.012588e-003
1.104092875281164e-006	-3.147919e-002	4.615627e+000	3.789726e-004
1.110928812781164e-006	-1.713419e-002	4.634030e+000	1.704391e-003
1.117764750281164e-006	-2.314329e-003	4.662827e+000	2.893949e-003
1.124600687781164e-006	1.212418e-002	4.700066e+000	3.887933e-003
1.131436625281164e-006	2.537768e-002	4.743405e+000	4.639393e-003
1.138272562781164e-006	3.674218e-002	4.790256e+000	5.116167e-003
1.145108500281164e-006	4.565188e-002	4.837931e+000	5.302107e-003
1.151944437781164e-006	5.170670e-002	4.883797e+000	5.197440e-003
1.158780375281164e-006	5.468763e-002	4.925415e+000	4.818264e-003
1.165616312781164e-006	5.455963e-002	4.960670e+000	4.195208e-003
1.172452250281164e-006	5.146325e-002	4.987876e+000	3.371319e-003
1.179288187781164e-006	4.569665e-002	5.005853e+000	2.399321e-003
1.186124125281165e-006	3.776137e-002	5.014450e+000	1.338456e-003
1.191644742394827e-006	3.002976e-002	5.013981e+000	4.563262e-004
1.197611188199215e-006	2.069757e-002	5.005787e+000	-4.771010e-004
1.204447125699215e-006	9.449767e-003	4.988408e+000	-1.471497e-003
1.211283063199215e-006	-1.811403e-003	4.963843e+000	-2.340333e-003
1.218119000699215e-006	-1.250518e-002	4.933465e+000	-3.038409e-003
1.224954938199215e-006	-2.207421e-002	4.899197e+000	-3.533387e-003
1.231790875699215e-006	-3.004145e-002	4.863109e+000	-3.805608e-003
1.238626813199215e-006	-3.603186e-002	4.827288e+000	-3.848691e-003
1.245462750699216e-006	-3.978875e-002	4.793727e+000	-3.669325e-003
1.252298688199216e-006	-4.118398e-002	4.764216e+000	-3.286303e-003
1.259134625699216e-006	-4.022162e-002	4.740254e+000	-2.728927e-003
1.265970563199216e-006	-3.703474e-002	4.722972e+000	-2.034889e-003
1.272806500699216e-006	-3.187529e-002	4.713092e+000	-1.247825e-003
1.279642438199216e-006	-2.509744e-002	4.710899e+000	-4.146601e-004
1.286478375699216e-006	-1.713515e-002	4.716245e+000	4.170677e-004
1.293314313199216e-006	-8.475317e-003	4.728572e+000	1.201796e-003
1.300150250699216e-006	3.718998e-004	4.746960e+000	1.898299e-003
1.306986188199216e-006	8.903555e-003	4.770191e+000	2.471723e-003
1.313822125699216e-006	1.665313e-002	4.796826e+000	2.895218e-003
1.320658063199216e-006	2.321649e-002	4.825292e+000	3.151089e-003
1.327494000699216e-006	2.827299e-002	4.853972e+000	3.231434e-003
1.334329938199216e-006	3.160043e-002	4.881301e+000	3.138238e-003
1.341165875699216e-006	3.308335e-002	4.905844e+000	2.882943e-003
1.348001813199216e-006	3.271446e-002	4.926372e+000	2.485512e-003
1.354837750699217e-006	3.058982e-002	4.941924e+000	1.973056e-003
1.361673688199217e-006	2.689824e-002	4.951849e+000	1.378101e-003
1.368509625699217e-006	2.190636e-002	4.955834e+000	7.366030e-004
1.375345563199217e-006	1.594987e-002	4.954020e+000	8.487910e-005
1.381584518369298e-006	9.958835e-003	4.947377e+000	-4.866392e-004
1.388420455869298e-006	3.143492e-003	4.935369e+000	-1.058393e-003
1.394324029435274e-006	-2.670214e-003	4.921726e+000	-1.485467e-003
1.399972537866000e-006	-7.902975e-003	4.906221e+000	-1.811543e-003
1.406808475366000e-006	-1.354642e-002	4.885536e+000	-2.090683e-003
1.413644412866000e-006	-1.822390e-002	4.863994e+000	-2.240913e-003
1.420480350366000e-006	-2.169066e-002	4.842728e+000	-2.253994e-003
1.427316287866000e-006	-2.380055e-002	4.822924e+000	-2.134540e-003
1.434152225366000e-006	-2.448631e-002	4.805643e+000	-1.894330e-003
1.440988162866000e-006	-2.376085e-002	4.791765e+000	-1.551352e-003
1.447824100366001e-006	-2.171427e-002	4.781950e+000	-1.128546e-003
1.454660037866001e-006	-1.850671e-002	4.776607e+000	-6.523292e-004
1.461495975366001e-006	-1.435744e-002	4.775882e+000	-1.510019e-004
1.468331912866001e-006	-9.530862e-003	4.779665e+000	3.468712e-004
1.475167850366001e-006	-4.320167e-003	4.787596e+000	8.140274e-004
1.482003787866001e-006	9.722217e-004	4.799092e+000	1.226407e-003
1.488687437366629e-006	5.936748e-003	4.813090e+000	1.555996e-003
1.495523374866629e-006	1.052776e-002	4.829364e+000	1.802271e-003
1.502359312366629e-006	1.439643e-002	4.846650e+000	1.947638e-003
1.509195249866629e-006	1.735337e-002	4.863991e+000	1.987370e-003
1.516031187366629e-006	1.926973e-002	4.880449e+000	1.923173e-003
1.522867124866629e-006	2.008002e-002	4.895171e+000	1.762411e-003
1.529703062366629e-006	1.978299e-002	4.907431e+000	1.517507e-003
1.536538999866629e-006	1.843886e-002	4.916664e+000	1.205083e-003
1.543374937366630e-006	1.616319e-002	4.922497e+000	8.448978e-004
1.550210874866630e-006	1.311803e-002	4.924757e+000	4.586405e-004
1.557046812366630e-006	9.504931e-003	4.923525e+000	6.821013e-005
1.563444675375071e-006	5.795104e-003	4.919308e+000	-2.810474e-004
1.570280612875071e-006	1.699168e-003	4.911970e+000	-6.192244e-004
1.576383612894765e-006	-1.890379e-003	4.903392e+000	-8.771488e-004
1.582336565122416e-006	-5.155758e-003	4.893519e+000	-1.074217e-003
1.589172502622416e-006	-8.457359e-003	4.881106e+000	-1.228851e-003
1.596008440122416e-006	-1.114799e-002	4.868288e+000	-1.304785e-003
1.602844377622416e-006	-1.309068e-002	4.855761e+000	-1.298601e-003
1.609680315122416e-006	-1.420608e-002	4.844229e+000	-1.213804e-003
1.616516252622416e-006	-1.446301e-002	4.834312e+000	-1.058113e-003
1.623352190122416e-006	-1.387859e-002	4.826519e+000	-8.428634e-004
1.630188127622416e-006	-1.251570e-002	4.821220e+000	-5.822368e-004
1.637024065122416e-006	-1.049467e-002	4.818538e+000	-2.925255e-004
1.642901042162779e-006	-8.308490e-003	4.818504e+000	-3.249315e-005
1.649311562593948e-006	-5.572720e-003	4.820877e+000	2.483361e-004
1.656147500093948e-006	-2.446285e-003	4.825767e+000	5.294838e-004
1.662983437593948e-006	7.290236e-004	4.832760e+000	7.785031e-004
1.669510937251130e-006	3.643967e-003	4.841063e+000	9.736366e-004
1.676346874751130e-006	6.412760e-003	4.850951e+000	1.123963e-003
1.683182812251130e-006	8.756476e-003	4.861465e+000	1.214097e-003
1.690018749751130e-006	1.055895e-002	4.872039e+000	1.240754e-003
1.696854687251130e-006	1.174098e-002	4.882109e+000	1.204816e-003
1.703690624751130e-006	1.226098e-002	4.891156e+000	1.110583e-003
