time	V(vgate)	V(n005)	I(D1)
0.000000000000000e+000	3.300000e+000	3.300000e+000	4.111923e-001
1.505439495873060e-012	3.300000e+000	3.295032e+000	4.111923e-001
3.010878991746121e-012	3.300000e+000	3.290064e+000	4.111923e-001
4.516318487619181e-012	3.300000e+000	3.285096e+000	4.111923e-001
6.021757983492242e-012	3.300000e+000	3.280128e+000	4.111923e-001
7.527197479365303e-012	3.300000e+000	3.275160e+000	4.111923e-001
9.032636975238362e-012	3.300000e+000	3.270192e+000	4.111923e-001
1.053807647111142e-011	3.300000e+000	3.265224e+000	4.111923e-001
1.567030363696294e-011	3.300000e+000	3.248288e+000	4.111923e-001
2.035462473202315e-011	3.300000e+000	3.232830e+000	4.111923e-001
2.536187763263817e-011	3.300000e+000	3.216306e+000	4.111923e-001
3.165206521223764e-011	3.299999e+000	3.195548e+000	4.111923e-001
3.948216340994757e-011	3.299999e+000	3.169709e+000	4.111923e-001
4.940742960045300e-011	3.299997e+000	3.136955e+000	4.111923e-001
6.177722344218856e-011	3.299995e+000	3.096135e+000	4.111923e-001
7.741053117068272e-011	3.299990e+000	3.044545e+000	4.111923e-001
9.702565160504986e-011	3.299982e+000	2.979815e+000	4.111923e-001
1.218936598946615e-010	3.299964e+000	2.897751e+000	4.111923e-001
1.533605487902854e-010	3.299930e+000	2.793910e+000	4.111923e-001
1.935504582297506e-010	3.299861e+000	2.661283e+000	4.111923e-001
2.450434622535039e-010	3.299726e+000	2.491357e+000	4.111923e-001
3.117766479729569e-010	3.299450e+000	2.271137e+000	4.111923e-001
3.991519126651524e-010	3.298887e+000	1.982799e+000	4.111923e-001
5.157708544488497e-010	3.297705e+000	1.597956e+000	4.111923e-001
6.754960462214711e-010	3.295381e+000	1.070863e+000	4.111923e-001
7.708376246382702e-010	3.293585e+000	7.562358e-001	4.111923e-001
8.093168431664020e-010	3.292700e+000	6.292544e-001	4.111923e-001
8.862752802226658e-010	3.290631e+000	3.752916e-001	4.111923e-001
1.000000000000000e-009	3.287253e+000	0.000000e+000	4.111923e-001
1.034117415933200e-009	3.286067e+000	0.000000e+000	4.111923e-001
1.079607303844134e-009	3.284390e+000	0.000000e+000	4.111923e-001
1.170587079666001e-009	3.280748e+000	0.000000e+000	4.111923e-001
1.352546631309736e-009	3.272727e+000	0.000000e+000	4.111923e-001
1.586238272966257e-009	3.261531e+000	0.000000e+000	4.111923e-001
1.805806741239764e-009	3.250389e+000	0.000000e+000	4.111923e-001
2.056289118485888e-009	3.237352e+000	0.000000e+000	4.111923e-001
2.337397605399837e-009	3.222768e+000	0.000000e+000	4.111923e-001
2.695881115127422e-009	3.204656e+000	0.000000e+000	4.111923e-001
3.132481810258977e-009	3.183673e+000	0.000000e+000	4.111924e-001
3.727921708593456e-009	3.157073e+000	0.000000e+000	4.111924e-001
4.584882179646587e-009	3.122069e+000	0.000000e+000	4.111926e-001
5.846558268995727e-009	3.074717e+000	0.000000e+000	4.111928e-001
7.008976446161042e-009	3.033819e+000	0.000000e+000	4.111931e-001
8.471430615173246e-009	2.984494e+000	0.000000e+000	4.111935e-001
1.003044236592192e-008	2.933337e+000	0.000000e+000	4.111939e-001
1.257838481365970e-008	2.852065e+000	0.000000e+000	4.111943e-001
1.632815063386794e-008	2.737405e+000	0.000000e+000	4.111938e-001
2.382768227428439e-008	2.522303e+000	0.000000e+000	4.111881e-001
3.359330727428439e-008	2.264735e+000	0.000000e+000	4.111705e-001
4.335893227428439e-008	2.031992e+000	0.000000e+000	4.111374e-001
5.312455727428439e-008	1.823254e+000	0.000000e+000	4.110832e-001
6.289018227428438e-008	1.636437e+000	0.000000e+000	4.109998e-001
7.265580727428438e-008	1.470286e+000	0.000000e+000	4.108736e-001
8.242143227428438e-008	1.324149e+000	0.000000e+000	4.106837e-001
9.041434361101606e-008	1.221808e+000	0.000000e+000	4.104511e-001
9.675221827407676e-008	1.157110e+000	0.000000e+000	4.101789e-001
1.017813104886336e-007	1.124594e+000	0.000000e+000	4.098577e-001
1.069137470877432e-007	1.111974e+000	0.000000e+000	4.093653e-001
1.119498720729693e-007	1.109927e+000	0.000000e+000	4.086519e-001
1.168011903621743e-007	1.109539e+000	0.000000e+000	4.076259e-001
1.249830766746492e-007	1.108641e+000	0.000000e+000	4.051202e-001
1.347487016746492e-007	1.107249e+000	0.000000e+000	4.009962e-001
1.445143266746492e-007	1.105462e+000	0.000000e+000	3.955481e-001
1.542799516746492e-007	1.103233e+000	0.000000e+000	3.886966e-001
1.640455766746492e-007	1.100499e+000	0.000000e+000	3.803843e-001
1.738112016746492e-007	1.097167e+000	0.000000e+000	3.704888e-001
1.835768266746492e-007	1.093091e+000	0.000000e+000	3.587966e-001
1.933424516746492e-007	1.088077e+000	0.000000e+000	3.449816e-001
2.031080766746492e-007	1.081852e+000	0.000000e+000	3.285989e-001
2.128737016746492e-007	1.074049e+000	0.000000e+000	3.091021e-001
2.226393266746492e-007	1.064139e+000	0.000000e+000	2.858881e-001
2.324049516746492e-007	1.051331e+000	0.000000e+000	2.583648e-001
2.421705766746492e-007	1.034287e+000	0.000000e+000	2.260348e-001
2.519362016746493e-007	1.010337e+000	0.000000e+000	1.885960e-001
2.617018266746493e-007	9.717404e-001	0.000000e+000	1.460896e-001
2.714674516746493e-007	8.949161e-001	0.000000e+000	9.938370e-002
2.782278781223426e-007	7.747647e-001	0.000000e+000	6.524635e-002
2.825502791018759e-007	6.130298e-001	0.000000e+000	4.321158e-002
2.872456200821658e-007	3.325408e-001	0.000000e+000	2.016279e-002
2.913387861635724e-007	2.456615e-002	0.000000e+000	1.540803e-003
2.939310602507638e-007	-1.910212e-001	0.000000e+000	-8.938129e-003
2.969007174290527e-007	-4.420154e-001	0.000000e+000	-1.915370e-002
3.002488478007151e-007	-7.087985e-001	0.000000e+000	-2.810320e-002
3.053400435545246e-007	-1.056348e+000	0.000000e+000	-3.673247e-002
3.109577998346163e-007	-1.331694e+000	0.000000e+000	-3.999282e-002
3.171296163712049e-007	-1.478128e+000	0.000000e+000	-3.689676e-002
3.227609373875894e-007	-1.454895e+000	0.000000e+000	-2.930076e-002
3.287987833977205e-007	-1.279864e+000	0.000000e+000	-1.796028e-002
3.327542234480611e-007	-1.086498e+000	0.000000e+000	-9.601435e-003
3.370827186440398e-007	-8.099458e-001	0.000000e+000	-2.854243e-004
3.414281460337092e-007	-4.930929e-001	0.000000e+000	8.565040e-003
3.457577966434744e-007	-1.580268e-001	0.000000e+000	1.648861e-002
3.491764992226202e-007	1.036487e-001	0.000000e+000	2.173293e-002
3.535707224417394e-007	4.154077e-001	0.000000e+000	2.692735e-002
3.575571169100265e-007	6.522700e-001	0.000000e+000	3.008154e-002
3.616337938061962e-007	8.071666e-001	0.000000e+000	3.150214e-002
3.667720667483396e-007	8.772863e-001	0.000000e+000	3.119609e-002
3.709806304911997e-007	8.712710e-001	0.000000e+000	2.950597e-002
3.749291860280633e-007	8.451108e-001	0.000000e+000	2.681810e-002
3.791099944351519e-007	8.005579e-001	0.000000e+000	2.297830e-002
3.854990953456328e-007	6.872212e-001	0.000000e+000	1.581113e-002
3.902348155409380e-007	5.612547e-001	0.000000e+000	9.789403e-003
3.943411349082368e-007	4.170309e-001	0.000000e+000	4.258648e-003
3.985199869697362e-007	2.482479e-001	0.000000e+000	-1.257588e-003
4.026072192135363e-007	7.442860e-002	0.000000e+000	-6.231525e-003
4.059437885413227e-007	-6.530080e-002	0.000000e+000	-9.698501e-003
4.101481893190811e-007	-2.284478e-001	0.000000e+000	-1.308467e-002
4.142691989683075e-007	-3.624787e-001	0.000000e+000	-1.512195e-002
4.204629975126564e-007	-5.036613e-001	0.000000e+000	-1.583139e-002
4.272272992628067e-007	-5.772815e-001	0.000000e+000	-1.406768e-002
4.328479630207951e-007	-5.680192e-001	0.000000e+000	-1.080617e-002
4.374321890286864e-007	-5.119357e-001	0.000000e+000	-7.196926e-003
4.409717564662492e-007	-4.408497e-001	0.000000e+000	-4.053858e-003
4.448712165407200e-007	-3.408944e-001	0.000000e+000	-4.809039e-004
4.487466483953022e-007	-2.273735e-001	0.000000e+000	2.953469e-003
4.533010398560934e-007	-8.510156e-002	0.000000e+000	6.646521e-003
4.570977957181464e-007	3.334367e-002	0.000000e+000	9.278419e-003
4.610680143315326e-007	1.497283e-001	0.000000e+000	1.143340e-002
4.650507424701664e-007	2.498606e-001	0.000000e+000	1.283832e-002
4.708459374316473e-007	3.570890e-001	0.000000e+000	1.353900e-002
4.774165714287752e-007	4.206190e-001	0.000000e+000	1.267109e-002
4.841192266801753e-007	4.214659e-001	0.000000e+000	1.022222e-002
4.890977252404892e-007	3.811324e-001	0.000000e+000	7.568993e-003
4.927257810186112e-007	3.297370e-001	0.000000e+000	5.289759e-003
4.961277457028432e-007	2.685398e-001	0.000000e+000	3.032949e-003
4.992617527600507e-007	2.044393e-001	0.000000e+000	9.895697e-004
5.047561861928411e-007	8.500236e-002	0.000000e+000	-2.319528e-003
5.093170697313790e-007	-1.363658e-002	0.000000e+000	-4.668212e-003
5.131585150878737e-007	-9.129246e-002	0.000000e+000	-6.189390e-003
5.169677788754256e-007	-1.570392e-001	0.000000e+000	-7.144212e-003
5.225789408145916e-007	-2.285137e-001	0.000000e+000	-7.595408e-003
5.291766491108734e-007	-2.738988e-001	0.000000e+000	-6.939104e-003
5.353897198727034e-007	-2.770023e-001	0.000000e+000	-5.314203e-003
5.402271632035337e-007	-2.522549e-001	0.000000e+000	-3.499849e-003
5.438483612600718e-007	-2.183855e-001	0.000000e+000	-1.920628e-003
5.474869664659478e-007	-1.738898e-001	0.000000e+000	-2.571654e-004
5.510002405815975e-007	-1.241598e-001	0.000000e+000	1.315064e-003
5.558888633337484e-007	-4.962001e-002	0.000000e+000	3.337526e-003
5.599810643284712e-007	1.327935e-002	0.000000e+000	4.797897e-003
5.638700002678020e-007	6.998264e-002	0.000000e+000	5.891571e-003
5.677552345419227e-007	1.191817e-001	0.000000e+000	6.614215e-003
5.734143634722301e-007	1.732629e-001	0.000000e+000	7.013655e-003
5.799104921659326e-007	2.074809e-001	0.000000e+000	6.637374e-003
5.868991892160747e-007	2.110729e-001	0.000000e+000	5.395588e-003
5.920672543163416e-007	1.920035e-001	0.000000e+000	4.029969e-003
5.958007526551704e-007	1.665765e-001	0.000000e+000	2.859972e-003
5.987860302594613e-007	1.403833e-001	0.000000e+000	1.871959e-003
6.019546426955833e-007	1.085083e-001	0.000000e+000	8.367170e-004
6.069872045528765e-007	5.426288e-002	0.000000e+000	-6.948665e-004
6.114927244208208e-007	5.110804e-003	0.000000e+000	-1.895703e-003
6.147350176989173e-007	-2.878007e-002	0.000000e+000	-2.593827e-003
6.181446688914510e-007	-6.071295e-002	0.000000e+000	-3.118654e-003
6.228243708127912e-007	-9.611834e-002	0.000000e+000	-3.493293e-003
6.289232628676832e-007	-1.254880e-001	0.000000e+000	-3.431821e-003
6.365382414318046e-007	-1.373032e-001	0.000000e+000	-2.677443e-003
6.421185844632522e-007	-1.284668e-001	0.000000e+000	-1.736595e-003
6.459990276525677e-007	-1.125624e-001	0.000000e+000	-9.156156e-004
6.492525900176637e-007	-9.393658e-002	0.000000e+000	-1.724862e-004
6.525495990459137e-007	-7.144956e-002	0.000000e+000	5.797151e-004
6.576207913205140e-007	-3.342580e-002	0.000000e+000	1.668816e-003
6.620853903617508e-007	1.044036e-003	0.000000e+000	2.515488e-003
6.656331234898034e-007	2.766544e-002	0.000000e+000	3.065596e-003
6.690273891466006e-007	5.060318e-002	0.000000e+000	3.443113e-003
6.742283386183369e-007	7.906985e-002	0.000000e+000	3.745288e-003
6.802944416982306e-007	9.998796e-002	0.000000e+000	3.701250e-003
6.883312920065636e-007	1.081832e-001	0.000000e+000	3.116564e-003
6.941445177372283e-007	1.007591e-001	0.000000e+000	2.400678e-003
6.981892291531218e-007	8.824130e-002	0.000000e+000	1.776124e-003
7.011516245927210e-007	7.564458e-002	0.000000e+000	1.284788e-003
7.051116133908848e-007	5.590189e-002	0.000000e+000	6.303289e-004
7.094273387635762e-007	3.260986e-002	0.000000e+000	-3.861756e-005
7.137483322087056e-007	8.739118e-003	0.000000e+000	-6.309341e-004
7.170888297308498e-007	-8.992323e-003	0.000000e+000	-1.002942e-003
7.213229727434534e-007	-2.926604e-002	0.000000e+000	-1.343430e-003
7.255841604103463e-007	-4.572364e-002	0.000000e+000	-1.522261e-003
7.319122979930904e-007	-6.150036e-002	0.000000e+000	-1.498932e-003
7.389111799340024e-007	-6.785841e-002	0.000000e+000	-1.168826e-003
7.442598162999749e-007	-6.434806e-002	0.000000e+000	-7.269073e-004
7.482433538908239e-007	-5.679029e-002	0.000000e+000	-3.101218e-004
7.513247164874140e-007	-4.830255e-002	0.000000e+000	4.224496e-005
7.550998046154967e-007	-3.564324e-002	0.000000e+000	4.795314e-004
7.596460769755662e-007	-1.866600e-002	0.000000e+000	9.819070e-004
7.639264059792754e-007	-1.938310e-003	0.000000e+000	1.408643e-003
7.671284478604477e-007	1.041515e-002	0.000000e+000	1.678136e-003
7.705834631361551e-007	2.277600e-002	0.000000e+000	1.900376e-003
7.751747667179620e-007	3.667519e-002	0.000000e+000	2.080329e-003
7.811750869910198e-007	4.943787e-002	0.000000e+000	2.124717e-003
7.884691553203263e-007	5.652387e-002	0.000000e+000	1.934024e-003
7.946527924229924e-007	5.515024e-002	0.000000e+000	1.596302e-003
7.993419908874546e-007	4.938600e-002	0.000000e+000	1.250788e-003
8.029091650846245e-007	4.249595e-002	0.000000e+000	9.558762e-004
8.064730455329675e-007	3.400610e-002	0.000000e+000	6.536617e-004
8.099036312455037e-007	2.487595e-002	0.000000e+000	3.746866e-004
8.150468159780639e-007	1.055079e-002	0.000000e+000	-1.885518e-006
8.194067773969952e-007	-1.366785e-003	0.000000e+000	-2.679189e-004
8.231379203560011e-007	-1.078019e-002	0.000000e+000	-4.382891e-004
8.268161113995671e-007	-1.860845e-002	0.000000e+000	-5.395347e-004
8.323112615796580e-007	-2.708034e-002	0.000000e+000	-5.757543e-004
8.387685713871500e-007	-3.223909e-002	0.000000e+000	-4.773472e-004
8.446721308741172e-007	-3.226032e-002	0.000000e+000	-2.717785e-004
8.491731751984009e-007	-2.918973e-002	0.000000e+000	-5.337448e-005
8.524099834566033e-007	-2.529964e-002	0.000000e+000	1.279572e-004
8.562700770221023e-007	-1.925899e-002	0.000000e+000	3.546971e-004
8.601326186205221e-007	-1.226892e-002	0.000000e+000	5.776073e-004
8.644451648921008e-007	-3.836031e-003	0.000000e+000	8.095456e-004
8.679326112841496e-007	3.059155e-003	0.000000e+000	9.720987e-004
8.723216258268005e-007	1.132004e-002	0.000000e+000	1.134147e-003
8.764987719956976e-007	1.812039e-002	0.000000e+000	1.233780e-003
8.827304794300744e-007	2.563395e-002	0.000000e+000	1.281143e-003
8.893988667933612e-007	2.988725e-002	0.000000e+000	1.216587e-003
8.961257309076850e-007	2.998802e-002	0.000000e+000	1.046309e-003
9.013219265642201e-007	2.725210e-002	0.000000e+000	8.590217e-004
9.053005519940031e-007	2.358017e-002	0.000000e+000	6.930565e-004
9.083795537523311e-007	1.995394e-002	0.000000e+000	5.596074e-004
9.120435238331355e-007	1.505523e-002	0.000000e+000	4.051930e-004
9.166721908741026e-007	8.515159e-003	0.000000e+000	2.269221e-004
9.211486964511192e-007	2.196558e-003	0.000000e+000	7.923759e-005
9.244691481863720e-007	-2.194497e-003	0.000000e+000	-5.629090e-006
9.286849324106352e-007	-7.076846e-003	0.000000e+000	-7.775921e-005
9.329351303463982e-007	-1.087681e-002	0.000000e+000	-1.078690e-004
9.392835446133093e-007	-1.418097e-002	0.000000e+000	-7.931174e-005
9.463907855444091e-007	-1.497847e-002	0.000000e+000	2.729333e-005
9.512604845295841e-007	-1.368160e-002	0.000000e+000	1.396301e-004
9.543470521209035e-007	-1.193551e-002	0.000000e+000	2.256487e-004
9.582360624594296e-007	-8.959502e-003	0.000000e+000	3.410893e-004
9.621376509989141e-007	-5.447844e-003	0.000000e+000	4.559596e-004
9.665898768826802e-007	-1.057089e-003	0.000000e+000	5.796131e-004
9.697562726686254e-007	2.143051e-003	0.000000e+000	6.572579e-004
9.737890313334354e-007	6.086951e-003	0.000000e+000	7.378728e-004
9.779505661946330e-007	9.691407e-003	0.000000e+000	7.949218e-004
9.842048751956052e-007	1.386364e-002	0.000000e+000	8.298521e-004
9.908863287028375e-007	1.637535e-002	0.000000e+000	8.056348e-004
9.983972367458747e-007	1.671129e-002	0.000000e+000	7.140141e-004
1.004046579887443e-006	1.529249e-002	0.000000e+000	6.112064e-004
1.008316794166416e-006	1.327606e-002	0.000000e+000	5.196341e-004
1.011467254347622e-006	1.135059e-002	0.000000e+000	4.495806e-004
1.015825359227790e-006	8.332909e-003	0.000000e+000	3.557909e-004
1.019843892979934e-006	5.416973e-003	0.000000e+000	2.775524e-004
1.024411700153395e-006	2.140814e-003	0.000000e+000	2.029306e-004
1.028366686190609e-006	-4.854694e-004	0.000000e+000	1.537264e-004
1.032203854180574e-006	-2.692251e-003	0.000000e+000	1.227621e-004
1.036034175244618e-006	-4.388696e-003	0.000000e+000	1.107766e-004
1.041786265257344e-006	-5.904003e-003	0.000000e+000	1.243059e-004
1.048595179923934e-006	-6.363024e-003	0.000000e+000	1.746292e-004
1.053210613577605e-006	-5.816567e-003	0.000000e+000	2.271855e-004
1.056389206126374e-006	-4.957615e-003	0.000000e+000	2.714002e-004
1.060181408305680e-006	-3.528555e-003	0.000000e+000	3.280809e-004
1.064677722142800e-006	-1.500956e-003	0.000000e+000	3.954470e-004
1.068515599046561e-006	4.142310e-004	0.000000e+000	4.497979e-004
1.072364372791732e-006	2.401690e-003	0.000000e+000	4.981031e-004
1.076193255413038e-006	4.298338e-003	0.000000e+000	5.363650e-004
1.081759515914936e-006	6.705154e-003	0.000000e+000	5.723092e-004
1.087970889617414e-006	8.647634e-003	0.000000e+000	5.836865e-004
1.095960757315125e-006	9.816065e-003	0.000000e+000	5.578117e-004
1.103396639928333e-006	9.600407e-003	0.000000e+000	5.022637e-004
1.108890061058059e-006	8.608928e-003	0.000000e+000	4.459012e-004
1.113214388368644e-006	7.388563e-003	0.000000e+000	3.964861e-004
1.116503062679665e-006	6.267905e-003	0.000000e+000	3.589963e-004
1.120900541558331e-006	4.640748e-003	0.000000e+000	3.121018e-004
1.124871728367945e-006	3.159804e-003	0.000000e+000	2.754582e-004
1.129878050645485e-006	1.395625e-003	0.000000e+000	2.393075e-004
1.134285878890369e-006	2.368903e-005	0.000000e+000	2.173818e-004
1.137675420954156e-006	-8.453866e-004	0.000000e+000	2.083438e-004
1.140824756499279e-006	-1.433246e-003	0.000000e+000	2.073658e-004
1.146010801364570e-006	-1.976491e-003	0.000000e+000	2.178528e-004
1.151438689625224e-006	-2.089535e-003	0.000000e+000	2.400348e-004
1.154876903847360e-006	-1.871577e-003	0.000000e+000	2.600868e-004
1.158783906641257e-006	-1.348099e-003	0.000000e+000	2.873470e-004
1.162703481469248e-006	-6.206022e-004	0.000000e+000	3.167707e-004
1.166230436782015e-006	1.768006e-004	0.000000e+000	3.436253e-004
1.170019060483530e-006	1.132669e-003	0.000000e+000	3.712770e-004
1.173769053696854e-006	2.115329e-003	0.000000e+000	3.954932e-004
1.179245401377457e-006	3.495671e-003	0.000000e+000	4.231136e-004
1.185233242468221e-006	4.769239e-003	0.000000e+000	4.405970e-004
1.192843929170790e-006	5.838858e-003	0.000000e+000	4.422077e-004
1.201124962351365e-006	6.234139e-003	0.000000e+000	4.218547e-004
1.208280257817697e-006	5.908812e-003	0.000000e+000	3.893405e-004
1.213914734301899e-006	5.236748e-003	0.000000e+000	3.572218e-004
1.218707342053918e-006	4.445285e-003	0.000000e+000	3.284992e-004
1.222697188851108e-006	3.695572e-003	0.000000e+000	3.055584e-004
1.225891402636539e-006	3.071009e-003	0.000000e+000	2.888905e-004
1.229037016145518e-006	2.472577e-003	0.000000e+000	2.751148e-004
1.234332896409194e-006	1.562939e-003	0.000000e+000	2.580076e-004
1.240096603608176e-006	7.527378e-004	0.000000e+000	2.473384e-004
1.244825190581961e-006	2.822783e-004	0.000000e+000	2.455496e-004
1.248774962489113e-006	5.823571e-005	0.000000e+000	2.491206e-004
1.252152749864277e-006	1.251212e-006	0.000000e+000	2.555753e-004
1.255825116836979e-006	7.075971e-005	0.000000e+000	2.654156e-004
1.259249869339720e-006	2.506120e-004	0.000000e+000	2.765861e-004
1.263582948629701e-006	6.151881e-004	0.000000e+000	2.924180e-004
1.268557714768211e-006	1.164826e-003	0.000000e+000	3.110950e-004
1.274474069352605e-006	1.919931e-003	0.000000e+000	3.316487e-004
1.280920589642171e-006	2.749248e-003	0.000000e+000	3.491071e-004
1.288287761547098e-006	3.553076e-003	0.000000e+000	3.599559e-004
1.296377857174735e-006	4.099435e-003	0.000000e+000	3.592265e-004
1.305883885421967e-006	4.232557e-003	0.000000e+000	3.441503e-004
1.313900234612744e-006	3.934814e-003	0.000000e+000	3.229929e-004
1.320199840630559e-006	3.460056e-003	0.000000e+000	3.033970e-004
1.325901534975299e-006	2.918171e-003	0.000000e+000	2.861273e-004
1.331437190090932e-006	2.370634e-003	0.000000e+000	2.719317e-004
1.337479933632735e-006	1.822084e-003	0.000000e+000	2.606445e-004
1.343009884101990e-006	1.432721e-003	0.000000e+000	2.553233e-004
1.350552420150497e-006	1.125198e-003	0.000000e+000	2.554663e-004
1.357939467849308e-006	1.075356e-003	0.000000e+000	2.620544e-004
