time	V(vgate)	V(vout)	I(D3)
0.000000000000000e+000	3.300000e+000	7.492814e-003	3.465263e-001
6.249999897583222e-013	3.300000e+000	7.492814e-003	3.465263e-001
1.249999979516644e-012	3.300000e+000	7.492814e-003	3.465263e-001
1.874999969274967e-012	3.300000e+000	7.492814e-003	3.465263e-001
2.499999959033289e-012	3.300000e+000	7.492814e-003	3.465263e-001
3.124999948791611e-012	3.300000e+000	7.492814e-003	3.465263e-001
3.749999938549933e-012	3.300000e+000	7.492814e-003	3.465263e-001
4.374999928308254e-012	3.300000e+000	7.492814e-003	3.465263e-001
8.749999856616508e-012	3.300000e+000	7.492814e-003	3.465263e-001
1.381701117753208e-011	3.299999e+000	7.492813e-003	3.465263e-001
1.898872284204022e-011	3.299999e+000	7.492812e-003	3.465263e-001
2.415176860583643e-011	3.299997e+000	7.492810e-003	3.465263e-001
3.047100523631604e-011	3.299994e+000	7.492804e-003	3.465263e-001
3.870230163646055e-011	3.299989e+000	7.492789e-003	3.465264e-001
4.956112202251354e-011	3.299979e+000	7.492755e-003	3.465264e-001
6.401963518804904e-011	3.299958e+000	7.492670e-003	3.465264e-001
8.373679810147271e-011	3.299912e+000	7.492462e-003	3.465264e-001
1.116193596322421e-010	3.299812e+000	7.491935e-003	3.465264e-001
1.537863771207170e-010	3.299569e+000	7.490494e-003	3.465264e-001
2.281431800886676e-010	3.298879e+000	7.486005e-003	3.465265e-001
3.615482975958321e-010	3.297042e+000	7.473533e-003	3.465266e-001
4.994780817764833e-010	3.294455e+000	7.455810e-003	3.465267e-001
6.797527179730919e-010	3.290285e+000	7.427583e-003	3.465268e-001
7.887941062745995e-010	3.287361e+000	7.408455e-003	3.465269e-001
1.000000000000000e-009	3.281177e+000	7.369153e-003	3.465270e-001
1.021120589372540e-009	3.280517e+000	7.365108e-003	3.465270e-001
1.063361768117620e-009	3.279230e+000	7.357279e-003	3.465270e-001
1.147844125607780e-009	3.276877e+000	7.343550e-003	3.465270e-001
1.316808840588101e-009	3.272930e+000	7.323230e-003	3.465271e-001
1.540463133572931e-009	3.268810e+000	7.307221e-003	3.465271e-001
1.755839535261078e-009	3.265721e+000	7.300648e-003	3.465272e-001
2.002316109134993e-009	3.262822e+000	7.299563e-003	3.465272e-001
2.282337793664987e-009	3.259916e+000	7.302247e-003	3.465272e-001
2.651662004454296e-009	3.256360e+000	7.308573e-003	3.465272e-001
3.112013606843220e-009	3.252090e+000	7.318088e-003	3.465272e-001
3.770620125079440e-009	3.246080e+000	7.332646e-003	3.465272e-001
4.731344755383759e-009	3.237371e+000	7.354332e-003	3.465272e-001
6.496220084152619e-009	3.221457e+000	7.394632e-003	3.465272e-001
1.002597074169034e-008	3.189919e+000	7.476661e-003	3.465272e-001
1.686190824169034e-008	3.129641e+000	7.639635e-003	3.465271e-001
2.369784574169034e-008	3.070365e+000	7.808024e-003	3.465264e-001
3.053378324169034e-008	3.012212e+000	7.982843e-003	3.465248e-001
4.420565824169034e-008	2.899185e+000	8.353186e-003	3.465186e-001
6.471347074169033e-008	2.737534e+000	8.966459e-003	3.465017e-001
7.838534574169032e-008	2.634792e+000	9.419229e-003	3.464853e-001
9.205722074169031e-008	2.535892e+000	9.912282e-003	3.464650e-001
1.057290957416903e-007	2.440689e+000	1.045090e-002	3.464406e-001
1.194009707416903e-007	2.349042e+000	1.104131e-002	3.464121e-001
1.330728457416903e-007	2.260817e+000	1.169096e-002	3.463793e-001
1.467447207416903e-007	2.175885e+000	1.240878e-002	3.463419e-001
1.604165957416903e-007	2.094127e+000	1.320558e-002	3.462997e-001
1.740884707416904e-007	2.015426e+000	1.409457e-002	3.462522e-001
1.809244082416904e-007	1.977188e+000	1.457860e-002	3.462263e-001
1.877603457416904e-007	1.939674e+000	1.509209e-002	3.461989e-001
1.945962832416904e-007	1.902872e+000	1.563773e-002	3.461698e-001
2.014322207416904e-007	1.866771e+000	1.621854e-002	3.461390e-001
2.082681582416904e-007	1.831359e+000	1.683790e-002	3.461063e-001
2.151040957416904e-007	1.796625e+000	1.749968e-002	3.460716e-001
2.219400332416904e-007	1.762559e+000	1.820823e-002	3.460348e-001
2.287759707416904e-007	1.729152e+000	1.896854e-002	3.459957e-001
2.356119082416904e-007	1.696396e+000	1.978627e-002	3.459541e-001
2.424478457416904e-007	1.664282e+000	2.066796e-002	3.459097e-001
2.492837832416904e-007	1.632805e+000	2.162113e-002	3.458624e-001
2.561197207416904e-007	1.601958e+000	2.265446e-002	3.458120e-001
2.629556582416904e-007	1.571738e+000	2.377805e-002	3.457579e-001
2.697915957416904e-007	1.542141e+000	2.500366e-002	3.457000e-001
2.766275332416904e-007	1.513167e+000	2.634507e-002	3.456378e-001
2.834634707416904e-007	1.484816e+000	2.781848e-002	3.455708e-001
2.902994082416904e-007	1.457092e+000	2.944303e-002	3.454985e-001
2.971353457416905e-007	1.430001e+000	3.124143e-002	3.454202e-001
3.039712832416905e-007	1.403553e+000	3.324071e-002	3.453353e-001
3.108072207416905e-007	1.377762e+000	3.547331e-002	3.452429e-001
3.176431582416905e-007	1.352646e+000	3.797822e-002	3.451419e-001
3.244790957416905e-007	1.328231e+000	4.080270e-002	3.450312e-001
3.313150332416905e-007	1.304551e+000	4.400433e-002	3.449094e-001
3.381509707416905e-007	1.281648e+000	4.765384e-002	3.447748e-001
3.449869082416905e-007	1.259579e+000	5.183890e-002	3.446253e-001
3.518228457416905e-007	1.238418e+000	5.666948e-002	3.444585e-001
3.586587832416905e-007	1.218259e+000	6.228548e-002	3.442715e-001
3.654947207416905e-007	1.199232e+000	6.886806e-002	3.440607e-001
3.723306582416905e-007	1.181509e+000	7.665701e-002	3.438214e-001
3.791665957416905e-007	1.165328e+000	8.597770e-002	3.435480e-001
3.860025332416906e-007	1.151029e+000	9.728391e-002	3.432331e-001
3.928384707416906e-007	1.139102e+000	1.112252e-001	3.428671e-001
3.996744082416906e-007	1.130269e+000	1.287471e-001	3.424370e-001
4.065103457416906e-007	1.125261e+000	1.508309e-001	3.419254e-001
4.133462832416906e-007	1.123554e+000	1.769481e-001	3.413116e-001
4.201822207416906e-007	1.123186e+000	2.048005e-001	3.405768e-001
4.270181582416906e-007	1.122884e+000	2.328733e-001	3.397108e-001
4.338540957416906e-007	1.122538e+000	2.610433e-001	3.387127e-001
4.406900332416906e-007	1.122158e+000	2.893300e-001	3.375867e-001
4.475259707416906e-007	1.121739e+000	3.177377e-001	3.363392e-001
4.543619082416906e-007	1.121287e+000	3.462831e-001	3.349768e-001
4.611978457416906e-007	1.120802e+000	3.749745e-001	3.335063e-001
4.680337832416906e-007	1.120286e+000	4.038274e-001	3.319338e-001
4.748697207416906e-007	1.119740e+000	4.328527e-001	3.302652e-001
4.885415957416906e-007	1.118562e+000	4.914811e-001	3.266606e-001
5.022134707416905e-007	1.117275e+000	5.509801e-001	3.227303e-001
5.158853457416904e-007	1.115885e+000	6.114843e-001	3.185056e-001
5.363931582416903e-007	1.113614e+000	7.044623e-001	3.116712e-001
5.569009707416902e-007	1.111121e+000	8.006452e-001	3.042951e-001
5.705728457416901e-007	1.109357e+000	8.660166e-001	2.991071e-001
5.842447207416900e-007	1.107471e+000	9.342256e-001	2.936981e-001
5.979165957416899e-007	1.105461e+000	1.005272e+000	2.880680e-001
6.115884707416898e-007	1.103329e+000	1.079156e+000	2.822170e-001
6.252603457416897e-007	1.101074e+000	1.155878e+000	2.761449e-001
6.389322207416896e-007	1.098696e+000	1.235438e+000	2.698519e-001
6.526040957416895e-007	1.096195e+000	1.317835e+000	2.633378e-001
6.731119082416894e-007	1.092078e+000	1.451274e+000	2.530437e-001
6.936197207416892e-007	1.087501e+000	1.596437e+000	2.420846e-001
7.141275332416891e-007	1.082368e+000	1.755318e+000	2.303637e-001
7.346353457416890e-007	1.076556e+000	1.929894e+000	2.177674e-001
7.551431582416888e-007	1.069906e+000	2.121966e+000	2.041705e-001
7.688150332416887e-007	1.064908e+000	2.260459e+000	1.944866e-001
7.824869082416886e-007	1.059373e+000	2.407660e+000	1.842643e-001
7.961587832416886e-007	1.053206e+000	2.563709e+000	1.734707e-001
8.098306582416885e-007	1.046291e+000	2.728568e+000	1.620786e-001
8.235025332416884e-007	1.038478e+000	2.901975e+000	1.500690e-001
8.303384707416883e-007	1.034176e+000	2.991730e+000	1.438297e-001
8.371744082416883e-007	1.029570e+000	3.083396e+000	1.374344e-001
8.440103457416882e-007	1.024623e+000	3.176850e+000	1.308845e-001
8.508462832416882e-007	1.019294e+000	3.271940e+000	1.241829e-001
8.576822207416881e-007	1.013528e+000	3.368479e+000	1.173338e-001
8.645181582416881e-007	1.007262e+000	3.466237e+000	1.103431e-001
8.713540957416881e-007	1.000417e+000	3.564931e+000	1.032189e-001
8.781900332416880e-007	9.928924e-001	3.664212e+000	9.597130e-002
8.850259707416880e-007	9.845585e-001	3.763639e+000	8.861351e-002
8.918619082416879e-007	9.752471e-001	3.862656e+000	8.116190e-002
8.986978457416879e-007	9.647331e-001	3.960542e+000	7.363692e-002
9.055337832416878e-007	9.527100e-001	4.056348e+000	6.606400e-002
9.123697207416878e-007	9.387524e-001	4.148798e+000	5.847480e-002
9.192056582416877e-007	9.222624e-001	4.236148e+000	5.090884e-002
9.260415957416877e-007	9.023988e-001	4.315991e+000	4.341570e-002
9.328775332416876e-007	8.780097e-001	4.385068e+000	3.605781e-002
9.397134707416876e-007	8.476273e-001	4.439191e+000	2.891361e-002
9.465494082416876e-007	8.096445e-001	4.473587e+000	2.208013e-002
9.533853457416875e-007	7.627583e-001	4.483882e+000	1.567308e-002
9.602212832416875e-007	7.065595e-001	4.467502e+000	9.821966e-003
9.670572207416875e-007	6.419142e-001	4.424723e+000	4.658864e-003
9.738931582416876e-007	5.708802e-001	4.358710e+000	3.027070e-004
9.807290957416876e-007	4.962713e-001	4.274729e+000	-3.156442e-003
9.875650332416877e-007	4.211845e-001	4.179153e+000	-5.668729e-003
9.944009707416878e-007	3.486667e-001	4.078716e+000	-7.229392e-003
1.001236908241688e-006	2.815102e-001	3.979997e+000	-7.877738e-003
1.008072845741688e-006	2.221183e-001	3.889061e+000	-7.691999e-003
1.014908783241688e-006	1.724034e-001	3.811171e+000	-6.781943e-003
1.021744720741688e-006	1.337092e-001	3.750560e+000	-5.280633e-003
1.028580658241688e-006	1.067597e-001	3.710272e+000	-3.336167e-003
1.035416595741688e-006	9.163868e-002	3.692063e+000	-1.103805e-003
1.042252533241688e-006	8.769590e-002	3.696136e+000	1.262319e-003
1.048778684475458e-006	9.355569e-002	3.720528e+000	3.508829e-003
1.055614621975458e-006	1.082097e-001	3.765616e+000	5.716406e-003
1.062450559475458e-006	1.294215e-001	3.827283e+000	7.661998e-003
1.069286496975458e-006	1.550734e-001	3.901978e+000	9.248758e-003
1.076122434475458e-006	1.828321e-001	3.985341e+000	1.040589e-002
1.082958371975458e-006	2.104000e-001	4.072708e+000	1.108923e-002
1.089794309475458e-006	2.356480e-001	4.159382e+000	1.128132e-002
1.096630246975458e-006	2.567297e-001	4.240904e+000	1.099033e-002
1.103466184475458e-006	2.721697e-001	4.313295e+000	1.024811e-002
1.110302121975458e-006	2.809241e-001	4.373266e+000	9.107994e-003
1.117138059475458e-006	2.824102e-001	4.418372e+000	7.642293e-003
1.123973996975458e-006	2.765084e-001	4.447118e+000	5.939427e-003
1.130809934475458e-006	2.637641e-001	4.459608e+000	4.099363e-003
1.136613729080685e-006	2.479032e-001	4.457343e+000	2.503816e-003
1.142138114358617e-006	2.287216e-001	4.443826e+000	1.030557e-003
1.148974051858617e-006	2.010279e-001	4.414796e+000	-6.469543e-004
1.155809989358617e-006	1.705098e-001	4.375337e+000	-2.092444e-003
1.162645926858617e-006	1.384577e-001	4.327805e+000	-3.227703e-003
1.169481864358617e-006	1.064315e-001	4.275559e+000	-4.002429e-003
1.176317801858617e-006	7.593465e-002	4.222059e+000	-4.391305e-003
1.183153739358617e-006	4.833638e-002	4.170666e+000	-4.393998e-003
1.189989676858617e-006	2.480314e-002	4.124461e+000	-4.033322e-003
1.196825614358617e-006	6.242328e-003	4.086093e+000	-3.352039e-003
1.203661551858617e-006	-6.750307e-003	4.057624e+000	-2.409062e-003
1.210445394234056e-006	-1.383746e-002	4.040621e+000	-1.282787e-003
1.217281331734056e-006	-1.517427e-002	4.035559e+000	-3.207662e-005
1.224117269234056e-006	-1.106866e-002	4.042597e+000	1.256162e-003
1.230953206734056e-006	-2.246309e-003	4.060864e+000	2.509728e-003
1.237088739417591e-006	9.075481e-003	4.086051e+000	3.547202e-003
1.243155914497775e-006	2.277452e-002	4.118215e+000	4.436232e-003
1.249991851997775e-006	3.995684e-002	4.160648e+000	5.237994e-003
1.256827789497775e-006	5.780153e-002	4.207165e+000	5.800970e-003
1.263663726997775e-006	7.519086e-002	4.255423e+000	6.097871e-003
1.270499664497775e-006	9.102516e-002	4.302865e+000	6.122120e-003
1.277335601997775e-006	1.043511e-001	4.347081e+000	5.882221e-003
1.284171539497775e-006	1.144087e-001	4.385937e+000	5.400702e-003
1.291007476997775e-006	1.206644e-001	4.417686e+000	4.712436e-003
1.297843414497775e-006	1.228291e-001	4.441050e+000	3.862444e-003
1.304679351997775e-006	1.208621e-001	4.455277e+000	2.903251e-003
1.311515289497775e-006	1.149602e-001	4.460159e+000	1.891869e-003
1.318351226997775e-006	1.055359e-001	4.456023e+000	8.865010e-004
1.325177955089794e-006	9.319906e-002	4.443705e+000	-5.553441e-005
1.332013892589794e-006	7.864978e-002	4.424415e+000	-8.861804e-004
1.338849830089794e-006	6.273250e-002	4.399747e+000	-1.561899e-003
1.345685767589794e-006	4.631924e-002	4.371514e+000	-2.051048e-003
1.352521705089794e-006	3.027815e-002	4.341651e+000	-2.334221e-003
1.359357642589794e-006	1.542526e-002	4.312101e+000	-2.404884e-003
1.366193580089794e-006	2.481507e-003	4.284703e+000	-2.269161e-003
1.373029517589794e-006	-7.963703e-003	4.261101e+000	-1.944820e-003
1.379865455089794e-006	-1.548066e-002	4.242650e+000	-1.459615e-003
1.386701392589794e-006	-1.981787e-002	4.230364e+000	-8.491400e-004
1.393537330089794e-006	-2.091010e-002	4.224862e+000	-1.543750e-004
1.400373267589794e-006	-1.893521e-002	4.226213e+000	5.814299e-004
1.406600674461943e-006	-1.459484e-002	4.233527e+000	1.249873e-003
1.413436611961943e-006	-7.452535e-003	4.247709e+000	1.941515e-003
1.420272549461943e-006	1.531123e-003	4.267184e+000	2.554192e-003
1.427108486961943e-006	1.178684e-002	4.290957e+000	3.055660e-003
1.433944424461943e-006	2.264088e-002	4.317688e+000	3.421738e-003
1.440780361961943e-006	3.341512e-002	4.345922e+000	3.636764e-003
1.447616299461943e-006	4.346594e-002	4.374171e+000	3.694093e-003
1.454452236961943e-006	5.221950e-002	4.401006e+000	3.596087e-003
1.461288174461943e-006	5.920123e-002	4.425132e+000	3.353646e-003
1.468124111961943e-006	6.405821e-002	4.445453e+000	2.985299e-003
1.474960049461943e-006	6.657364e-002	4.461130e+000	2.515924e-003
1.481795986961943e-006	6.667276e-002	4.471620e+000	1.975169e-003
1.488631924461943e-006	6.449973e-002	4.476892e+000	1.395300e-003
1.494416678982758e-006	6.091715e-002	4.477060e+000	8.983471e-004
1.500773584956007e-006	5.531634e-002	4.472825e+000	3.732410e-004
1.507609522456007e-006	4.786695e-002	4.464083e+000	-1.404896e-004
1.514445459956007e-006	3.935918e-002	4.451756e+000	-5.767919e-004
1.521281397456008e-006	3.025964e-002	4.436749e+000	-9.137325e-004
1.528117334956008e-006	2.107978e-002	4.420156e+000	-1.136553e-003
1.534953272456008e-006	1.231643e-002	4.403120e+000	-1.237617e-003
1.541789209956008e-006	4.374262e-003	4.386683e+000	-1.220543e-003
1.547651422883447e-006	-1.431254e-003	4.373920e+000	-1.111245e-003
1.554013114741054e-006	-6.373362e-003	4.362293e+000	-9.004570e-004
1.560849052241054e-006	-1.002060e-002	4.352877e+000	-5.913642e-004
1.567684989741054e-006	-1.183739e-002	4.347144e+000	-2.169114e-004
1.574520927241054e-006	-1.178206e-002	4.345456e+000	2.002482e-004
1.581356864741054e-006	-9.947450e-003	4.347885e+000	6.343972e-004
1.588192802241054e-006	-6.522966e-003	4.354267e+000	1.059952e-003
1.595028739741054e-006	-1.780284e-003	4.364221e+000	1.452881e-003
1.601864677241055e-006	3.934725e-003	4.377131e+000	1.793891e-003
1.608031118012168e-006	9.635435e-003	4.390816e+000	2.039265e-003
1.614867055512168e-006	1.618249e-002	4.407470e+000	2.230003e-003
1.621702993012169e-006	2.257302e-002	4.424758e+000	2.331854e-003
1.628538930512169e-006	2.844836e-002	4.441853e+000	2.340305e-003
1.635374868012169e-006	3.348373e-002	4.457922e+000	2.258086e-003
1.642210805512169e-006	3.741527e-002	4.472223e+000	2.092905e-003
1.649046743012169e-006	4.005239e-002	4.484140e+000	1.856840e-003
1.655882680512169e-006	4.128550e-002	4.493214e+000	1.565508e-003
1.662718618012169e-006	4.108872e-002	4.499162e+000	1.237074e-003
1.669554555512169e-006	3.958055e-002	4.502052e+000	8.905912e-004
1.674942998695537e-006	3.747116e-002	4.502030e+000	6.175977e-004
1.681103324178501e-006	3.415523e-002	4.499563e+000	3.207895e-004
1.687939261678501e-006	2.968828e-002	4.494465e+000	2.423688e-005
1.694775199178501e-006	2.463911e-002	4.487335e+000	-2.242358e-004
1.701611136678501e-006	1.928034e-002	4.478702e+000	-4.120827e-004
1.708447074178502e-006	1.391545e-002	4.469224e+000	-5.313003e-004
1.715283011678502e-006	8.836979e-003	4.459582e+000	-5.780936e-004
1.722118949178502e-006	4.310542e-003	4.450438e+000	-5.529290e-004
1.728954886678502e-006	5.609496e-004	4.442398e+000	-4.603374e-004
1.735790824178502e-006	-2.238916e-003	4.435984e+000	-3.084899e-004
1.742626761678502e-006	-3.975940e-003	4.431605e+000	-1.085832e-004
1.749462699178502e-006	-4.633292e-003	4.429464e+000	1.255318e-004
1.755480062257995e-006	-4.304041e-003	4.429594e+000	3.490855e-004
1.761317325606478e-006	-3.158265e-003	4.431680e+000	5.709652e-004
1.768153263106478e-006	-9.786175e-004	4.436250e+000	8.237608e-004
1.774255928685145e-006	1.590479e-003	4.442046e+000	1.032762e-003
1.780175317280951e-006	4.560245e-003	4.449139e+000	1.209222e-003
1.787011254780951e-006	8.337961e-003	4.458641e+000	1.373162e-003
1.793847192280951e-006	1.225467e-002	4.469037e+000	1.488972e-003
1.800683129780951e-006	1.609236e-002	4.479862e+000	1.550500e-003
1.807519067280951e-006	1.963019e-002	4.490592e+000	1.556088e-003
1.814355004780951e-006	2.267301e-002	4.500726e+000	1.507285e-003
1.821190942280951e-006	2.506133e-002	4.509816e+000	1.408642e-003
1.828026879780951e-006	2.667897e-002	4.517488e+000	1.267350e-003
1.834862817280951e-006	2.745781e-002	4.523460e+000	1.092739e-003
1.841698754780951e-006	2.737978e-002	4.527561e+000	8.956783e-004
1.848534692280951e-006	2.647588e-002	4.529726e+000	6.879066e-004
1.855370629780951e-006	2.482378e-002	4.530006e+000	4.812987e-004
1.862143530012867e-006	2.255990e-002	4.528567e+000	2.890335e-004
1.868979467512867e-006	1.978835e-002	4.525625e+000	1.177697e-004
1.875815405012867e-006	1.669865e-002	4.521509e+000	-2.211097e-005
1.882651342512867e-006	1.346993e-002	4.516587e+000	-1.240504e-004
1.889487280012867e-006	1.028374e-002	4.511261e+000	-1.839262e-004
1.896323217512867e-006	7.312539e-003	4.505939e+000	-2.001543e-004
1.903159155012867e-006	4.710323e-003	4.501015e+000	-1.736815e-004
1.909995092512867e-006	2.604670e-003	4.496842e+000	-1.078339e-004
1.916831030012867e-006	1.090512e-003	4.493720e+000	-8.035193e-006
1.923666967512867e-006	2.047277e-004	4.491829e+000	1.181202e-004
1.929637130604826e-006	-1.772151e-005	4.491344e+000	2.441235e-004
1.935710952803979e-006	3.043484e-004	4.492092e+000	3.810803e-004
1.942546890303979e-006	1.237772e-003	4.494317e+000	5.365851e-004
1.949382827803979e-006	2.684813e-003	4.497882e+000	6.851510e-004
1.956218765303979e-006	4.556844e-003	4.502664e+000	8.186462e-004
1.963054702803979e-006	6.727399e-003	4.508435e+000	9.299269e-004
1.969890640303979e-006	9.057969e-003	4.514919e+000	1.013372e-003
1.976726577803979e-006	1.140630e-002	4.521811e+000	1.065142e-003
1.983562515303979e-006	1.363458e-002	4.528792e+000	1.083324e-003
1.990398452803979e-006	1.561708e-002	4.535550e+000	1.067971e-003
1.997234390303979e-006	1.724680e-002	4.541798e+000	1.021026e-003
2.004070327803979e-006	1.844079e-002	4.547285e+000	9.461406e-004
2.010906265303979e-006	1.914389e-002	4.551814e+000	8.484105e-004
2.017742202803979e-006	1.933081e-002	4.555249e+000	7.340350e-004
2.024578140303979e-006	1.900635e-002	4.557519e+000	6.099273e-004
2.031414077803979e-006	1.820404e-002	4.558622e+000	4.832984e-004
2.038250015303980e-006	1.698993e-002	4.558643e+000	3.609166e-004
2.044457450222341e-006	1.558459e-002	4.557786e+000	2.595017e-004
2.051293387722341e-006	1.379525e-002	4.556040e+000	1.640063e-004
2.058129325222341e-006	1.186822e-002	4.553699e+000	8.920868e-005
2.064965262722341e-006	9.906968e-003	4.550974e+000	3.872353e-005
2.071801200222341e-006	8.019691e-003	4.548116e+000	1.434618e-005
2.078637137722341e-006	6.306451e-003	4.545369e+000	1.632879e-005
2.085473075222341e-006	4.853845e-003	4.542962e+000	4.342429e-005
